<Qucs Dataset 0.0.17>
<indep time 200>
  +0.00000000000e+000
  +1.50753768844e-004
  +3.01507537688e-004
  +4.52261306533e-004
  +6.03015075377e-004
  +7.53768844221e-004
  +9.04522613065e-004
  +1.05527638191e-003
  +1.20603015075e-003
  +1.35678391960e-003
  +1.50753768844e-003
  +1.65829145729e-003
  +1.80904522613e-003
  +1.95979899497e-003
  +2.11055276382e-003
  +2.26130653266e-003
  +2.41206030151e-003
  +2.56281407035e-003
  +2.71356783920e-003
  +2.86432160804e-003
  +3.01507537688e-003
  +3.16582914573e-003
  +3.31658291457e-003
  +3.46733668342e-003
  +3.61809045226e-003
  +3.76884422111e-003
  +3.91959798995e-003
  +4.07035175879e-003
  +4.22110552764e-003
  +4.37185929648e-003
  +4.52261306533e-003
  +4.67336683417e-003
  +4.82412060302e-003
  +4.97487437186e-003
  +5.12562814070e-003
  +5.27638190955e-003
  +5.42713567839e-003
  +5.57788944724e-003
  +5.72864321608e-003
  +5.87939698492e-003
  +6.03015075377e-003
  +6.18090452261e-003
  +6.33165829146e-003
  +6.48241206030e-003
  +6.63316582915e-003
  +6.78391959799e-003
  +6.93467336683e-003
  +7.08542713568e-003
  +7.23618090452e-003
  +7.38693467337e-003
  +7.53768844221e-003
  +7.68844221106e-003
  +7.83919597990e-003
  +7.98994974874e-003
  +8.14070351759e-003
  +8.29145728643e-003
  +8.44221105528e-003
  +8.59296482412e-003
  +8.74371859296e-003
  +8.89447236181e-003
  +9.04522613065e-003
  +9.19597989950e-003
  +9.34673366834e-003
  +9.49748743719e-003
  +9.64824120603e-003
  +9.79899497487e-003
  +9.94974874372e-003
  +1.01005025126e-002
  +1.02512562814e-002
  +1.04020100503e-002
  +1.05527638191e-002
  +1.07035175879e-002
  +1.08542713568e-002
  +1.10050251256e-002
  +1.11557788945e-002
  +1.13065326633e-002
  +1.14572864322e-002
  +1.16080402010e-002
  +1.17587939698e-002
  +1.19095477387e-002
  +1.20603015075e-002
  +1.22110552764e-002
  +1.23618090452e-002
  +1.25125628141e-002
  +1.26633165829e-002
  +1.28140703518e-002
  +1.29648241206e-002
  +1.31155778894e-002
  +1.32663316583e-002
  +1.34170854271e-002
  +1.35678391960e-002
  +1.37185929648e-002
  +1.38693467337e-002
  +1.40201005025e-002
  +1.41708542714e-002
  +1.43216080402e-002
  +1.44723618090e-002
  +1.46231155779e-002
  +1.47738693467e-002
  +1.49246231156e-002
  +1.50753768844e-002
  +1.52261306533e-002
  +1.53768844221e-002
  +1.55276381910e-002
  +1.56783919598e-002
  +1.58291457286e-002
  +1.59798994975e-002
  +1.61306532663e-002
  +1.62814070352e-002
  +1.64321608040e-002
  +1.65829145729e-002
  +1.67336683417e-002
  +1.68844221106e-002
  +1.70351758794e-002
  +1.71859296482e-002
  +1.73366834171e-002
  +1.74874371859e-002
  +1.76381909548e-002
  +1.77889447236e-002
  +1.79396984925e-002
  +1.80904522613e-002
  +1.82412060302e-002
  +1.83919597990e-002
  +1.85427135678e-002
  +1.86934673367e-002
  +1.88442211055e-002
  +1.89949748744e-002
  +1.91457286432e-002
  +1.92964824121e-002
  +1.94472361809e-002
  +1.95979899497e-002
  +1.97487437186e-002
  +1.98994974874e-002
  +2.00502512563e-002
  +2.02010050251e-002
  +2.03517587940e-002
  +2.05025125628e-002
  +2.06532663317e-002
  +2.08040201005e-002
  +2.09547738693e-002
  +2.11055276382e-002
  +2.12562814070e-002
  +2.14070351759e-002
  +2.15577889447e-002
  +2.17085427136e-002
  +2.18592964824e-002
  +2.20100502513e-002
  +2.21608040201e-002
  +2.23115577889e-002
  +2.24623115578e-002
  +2.26130653266e-002
  +2.27638190955e-002
  +2.29145728643e-002
  +2.30653266332e-002
  +2.32160804020e-002
  +2.33668341709e-002
  +2.35175879397e-002
  +2.36683417085e-002
  +2.38190954774e-002
  +2.39698492462e-002
  +2.41206030151e-002
  +2.42713567839e-002
  +2.44221105528e-002
  +2.45728643216e-002
  +2.47236180905e-002
  +2.48743718593e-002
  +2.50251256281e-002
  +2.51758793970e-002
  +2.53266331658e-002
  +2.54773869347e-002
  +2.56281407035e-002
  +2.57788944724e-002
  +2.59296482412e-002
  +2.60804020101e-002
  +2.62311557789e-002
  +2.63819095477e-002
  +2.65326633166e-002
  +2.66834170854e-002
  +2.68341708543e-002
  +2.69849246231e-002
  +2.71356783920e-002
  +2.72864321608e-002
  +2.74371859296e-002
  +2.75879396985e-002
  +2.77386934673e-002
  +2.78894472362e-002
  +2.80402010050e-002
  +2.81909547739e-002
  +2.83417085427e-002
  +2.84924623116e-002
  +2.86432160804e-002
  +2.87939698492e-002
  +2.89447236181e-002
  +2.90954773869e-002
  +2.92462311558e-002
  +2.93969849246e-002
  +2.95477386935e-002
  +2.96984924623e-002
  +2.98492462312e-002
  +3.00000000000e-002
</indep>
<dep V1.It time>
  +0.00000000000e+000
  -5.62816954716e-010
  -1.88081319189e-004
  -5.22006241567e-003
  -1.14964074612e-002
  -1.78657004039e-002
  -2.41974426207e-002
  -3.04378194378e-002
  -3.65520587254e-002
  -4.25126658492e-002
  -4.82957647754e-002
  -5.38796812600e-002
  -5.92443200063e-002
  -6.43708718544e-002
  -6.92416743693e-002
  -7.38401496358e-002
  -7.81507830915e-002
  -8.21591248670e-002
  -8.58518035203e-002
  -8.92165463429e-002
  -9.22422027247e-002
  -9.49187683746e-002
  -9.72374089572e-002
  -9.91904821841e-002
  -1.00771557693e-001
  -1.01975434251e-001
  -1.02798153946e-001
  -1.03237013140e-001
  -1.03290570024e-001
  -1.02958648660e-001
  -1.02242339483e-001
  -1.01143996232e-001
  -9.96672293645e-002
  -9.78168960360e-002
  -9.55990867858e-002
  -9.30211091435e-002
  -9.00914684515e-002
  -8.68198463334e-002
  -8.32170774032e-002
  -7.92951250885e-002
  -7.50670578459e-002
  -7.05470277227e-002
  -6.57502543368e-002
  -6.06930193141e-002
  -5.53926798137e-002
  -4.98677167129e-002
  -4.41378472760e-002
  -3.82242637267e-002
  -3.21501360257e-002
  -2.59417284295e-002
  -1.96311632010e-002
  -1.32646743097e-002
  -6.93735463506e-003
  -1.13783339757e-003
  -2.05373985226e-008
  +2.49543748289e-011
  +1.87036878537e-011
  +1.74242235761e-011
  +2.66879854879e-011
  +2.36596892830e-011
  +1.98575903403e-011
  +1.77875549032e-011
  +1.71974136621e-011
  +1.46713991674e-011
  +1.45353098718e-011
  +1.23342495614e-011
  +1.24375291052e-011
  +1.04171156962e-011
  +1.06594440928e-011
  +8.74779513982e-012
  +9.07631236509e-012
  +7.23368868852e-012
  +7.61792146434e-012
  +5.82055786932e-012
  +6.24170183658e-012
  +4.47449602999e-012
  +4.92026305393e-012
  +3.17308387440e-012
  +3.63500655514e-012
  +1.90067260255e-012
  +2.37255997688e-012
  +6.45634028466e-013
  +1.12260799030e-012
  -6.01393948218e-013
  -1.23568251079e-013
  -1.84876456371e-012
  -1.37421607332e-012
  -3.10487379716e-012
  -2.63814189600e-012
  -4.37922050930e-012
  -3.92585401320e-012
  -5.68369238806e-012
  -5.25106548754e-012
  -7.03438065492e-012
  -6.63294773088e-012
  -8.45444830324e-012
  -8.09986812815e-012
  -9.97909325438e-012
  -9.69610713350e-012
  -1.16648841929e-011
  -1.14951318246e-011
  -1.36090431072e-011
  -1.36284308567e-011
  -1.59939365567e-011
  -1.63564653532e-011
  -1.92040248285e-011
  -2.02642955257e-011
  -2.41157047973e-011
  -2.57362465166e-011
  -1.76647742627e-011
  -2.06967608118e-011
  -2.65634452423e-011
  -1.84132431234e-007
  -1.97828908926e-003
  -7.98088032128e-003
  -1.43267667041e-002
  -2.06883425234e-002
  -2.69845309154e-002
  -3.31725759261e-002
  -3.92216655972e-002
  -4.51061766003e-002
  -5.08033225449e-002
  -5.62921821882e-002
  -6.15532563765e-002
  -6.65682570807e-002
  -7.13200085387e-002
  -7.57924064095e-002
  -7.99704082499e-002
  -8.38400413064e-002
  -8.73884197083e-002
  -9.06037664845e-002
  -9.34754375149e-002
  -9.59939456471e-002
  -9.81509837326e-002
  -9.99394458160e-002
  -1.01353445860e-001
  -1.02388333658e-001
  -1.03040707597e-001
  -1.03308424130e-001
  -1.03190603763e-001
  -1.02687633546e-001
  -1.01801165967e-001
  -1.00534114332e-001
  -9.88906446176e-002
  -9.68761639869e-002
  -9.44973060580e-002
  -9.17619132437e-002
  -8.86790164543e-002
  -8.52588127083e-002
  -8.15126413090e-002
  -7.74529596627e-002
  -7.30933202314e-002
  -6.84483510440e-002
  -6.35337435270e-002
  -5.83662540657e-002
  -5.29637303904e-002
  -4.73451834562e-002
  -4.15309454812e-002
  -3.55430012137e-002
  -2.94056978570e-002
  -2.31473869384e-002
  -1.68047875776e-002
  -1.04377478394e-002
  -4.21015864873e-003
  -2.87784338772e-005
  -3.04498978304e-011
  +2.23837176547e-011
  +1.73585346990e-011
  +2.48582506772e-011
  +2.41516889071e-011
  +2.11647292370e-011
  +2.00710484355e-011
  +1.69081662073e-011
  +1.66229436506e-011
  +1.40140688079e-011
  +1.41184944982e-011
  +1.17922507519e-011
  +1.21072628548e-011
  +9.94142291186e-012
  +1.03808417275e-011
  +8.31291678199e-012
  +8.83031399521e-012
  +6.82507630150e-012
  +7.39323360457e-012
  +5.42931124780e-012
  +6.03120018876e-012
  +4.09483906240e-012
  +4.71920264310e-012
  +2.80106604232e-012
  +3.44005103436e-012
  +1.53343150780e-012
  +2.18120934783e-012
  +2.80941058093e-013
  +9.32828561911e-013
  -9.65444029209e-013
  -3.13613348330e-013
  -2.21399702769e-012
  -1.56639672469e-012
  -3.47326150993e-012
  -2.83459737569e-012
</dep>
<dep V2.It time>
  +0.00000000000e+000
  -1.85293227441e-011
  -2.01715382871e-011
  -2.52951738910e-011
  -2.22453066198e-011
  -1.98067001244e-011
  -1.78203404578e-011
  -1.62435389840e-011
  -1.48467421908e-011
  -1.36823997461e-011
  -1.25832981338e-011
  -1.16398273826e-011
  -1.07083999529e-011
  -9.89461229063e-012
  -9.06502449802e-012
  -8.33219127225e-012
  -7.56759389935e-012
  -6.88732224617e-012
  -6.16547884013e-012
  -5.52010038750e-012
  -4.82676837601e-012
  -4.20465206817e-012
  -3.53020632306e-012
  -2.92327591172e-012
  -2.26083697332e-012
  -1.66313259023e-012
  -1.00743664058e-012
  -4.14205227775e-013
  +2.39148602517e-013
  +8.32096561102e-013
  +1.48721690258e-012
  +2.08403570846e-012
  +2.74525129670e-012
  +3.35058139779e-012
  +4.02299724000e-012
  +4.64258507412e-012
  +5.33280064998e-012
  +5.97435926287e-012
  +6.69153000407e-012
  +7.36608157688e-012
  +8.12365557243e-012
  +8.84783040833e-012
  +9.66664022454e-012
  +1.04669270029e-011
  +1.13812036611e-011
  +1.23026249806e-011
  +1.33728210336e-011
  +1.44985185532e-011
  +1.58422006182e-011
  +1.73438180976e-011
  +1.92202007678e-011
  +2.14973958855e-011
  +2.44513306741e-011
  +2.54120966392e-011
  +1.78950856486e-011
  +2.10564708434e-011
  +4.18040485631e-011
  +6.98433033260e-006
  +3.54999542743e-003
  +9.73349477069e-003
  +1.60970299121e-002
  +2.24460134707e-002
  +2.87157312962e-002
  +3.48679792869e-002
  +4.08737752387e-002
  +4.67084346562e-002
  +5.23497555826e-002
  +5.77772430257e-002
  +6.29717492030e-002
  +6.79153017995e-002
  +7.25910250852e-002
  +7.69831097096e-002
  +8.10768090781e-002
  +8.48584503464e-002
  +8.83154533443e-002
  +9.14363533393e-002
  +9.42108252058e-002
  +9.66297073200e-002
  +9.86850241753e-002
  +1.00370006912e-001
  +1.01679111319e-001
  +1.02608032873e-001
  +1.03153718626e-001
  +1.03314375698e-001
  +1.03089476324e-001
  +1.02479759320e-001
  +1.01487228022e-001
  +1.00115144656e-001
  +9.83680212750e-002
  +9.62516073243e-002
  +9.37728740964e-002
  +9.09399962724e-002
  +8.77623310097e-002
  +8.42503950496e-002
  +8.04158406962e-002
  +7.62714317448e-002
  +7.18310211601e-002
  +6.71095331330e-002
  +6.21229539607e-002
  +5.68883390750e-002
  +5.14238494334e-002
  +4.57488419350e-002
  +3.98840637796e-002
  +3.38520599532e-002
  +2.76780604668e-002
  +2.13920975665e-002
  +1.50349436769e-002
  +8.68027438332e-003
  +2.58926573387e-003
  +7.91945639691e-007
  -2.45502586384e-011
  -2.00948029869e-011
  -1.76585125966e-011
  -2.67017087798e-011
  -2.43014686215e-011
  -2.06922636764e-011
  -1.92598559867e-011
  -1.66924442703e-011
  -1.59869361353e-011
  -1.39202533579e-011
  -1.35700352940e-011
  -1.17631211854e-011
  -1.16077349855e-011
  -9.95002808335e-012
  -9.91087878264e-012
  -8.34497999973e-012
  -8.37915408122e-012
  -6.87233157132e-012
  -6.95442062533e-012
  -5.48663966178e-012
  -5.60061871669e-012
  -4.15888780355e-012
  -4.29408494775e-012
  -2.86951895934e-012
  -3.01843007723e-012
  -1.60459033492e-012
  -1.76159115085e-012
  -3.53462948623e-013
  -5.13976215259e-013
  +8.92729881738e-013
  +7.32841130381e-013
  +2.14223754288e-012
  +1.98718792168e-012
  +3.40372314761e-012
  +3.25833823853e-012
  +4.68737723702e-012
  +4.55775209149e-012
  +6.00635120815e-012
  +5.90079136524e-012
  +7.37887237932e-012
  +7.30939396185e-012
  +8.83170293760e-012
  +8.81664422262e-012
  +1.04063061532e-011
  +1.04752708424e-011
  +1.21708236075e-011
  +1.23749474427e-011
  +1.42457372061e-011
  +1.46815026034e-011
  +1.68658121556e-011
  +1.77381280360e-011
  +2.05495205585e-011
  +2.23370794602e-011
  +2.62213326253e-011
  +1.67723748042e-011
  +1.94974468454e-011
  +2.31533772510e-011
  +4.80252437152e-009
  +6.64324197775e-004
  +6.24649332364e-003
  +1.25569654560e-002
  +1.89254529101e-002
  +2.52449249504e-002
  +3.14664225116e-002
  +3.75568410396e-002
  +4.34894506541e-002
  +4.92408097576e-002
  +5.47895382055e-002
  +6.01157698409e-002
  +6.52008935847e-002
  +7.00274306435e-002
  +7.45789810253e-002
  +7.88402070886e-002
  +8.27968375195e-002
  +8.64356824659e-002
  +8.97446545728e-002
  +9.27127925974e-002
  +9.53302856366e-002
  +9.75884965430e-002
  +9.94799837078e-002
  +1.00998520502e-001
  +1.02139112017e-001
  +1.02898008710e-001
  +1.03272716825e-001
  +1.03262005337e-001
  +1.02865909441e-001
  +1.02085730424e-001
  +1.00924032034e-001
  +9.93846332952e-002
  +9.74725979419e-002
</dep>
<dep Vout.Vt time>
  +0.00000000000e+000
  +2.72143815986e-008
  +9.40406495086e-003
  +2.61003119519e-001
  +5.74820371948e-001
  +8.93285019206e-001
  +1.20987213014e+000
  +1.52189097108e+000
  +1.82760293553e+000
  +2.12563329178e+000
  +2.41478823814e+000
  +2.69398406242e+000
  +2.96221599978e+000
  +3.21854359223e+000
  +3.46208371801e+000
  +3.69200748138e+000
  +3.90753915420e+000
  +4.10795624301e+000
  +4.29259017571e+000
  +4.46082731687e+000
  +4.61211013600e+000
  +4.74593841852e+000
  +4.86187044768e+000
  +4.95952410906e+000
  +5.03857788455e+000
  +5.09877171246e+000
  +5.13990769723e+000
  +5.16185065699e+000
  +5.16452850120e+000
  +5.14793243304e+000
  +5.11211697422e+000
  +5.05719981170e+000
  +4.98336146836e+000
  +4.89084480197e+000
  +4.77995433949e+000
  +4.65105545740e+000
  +4.50457342284e+000
  +4.34099231697e+000
  +4.16085387050e+000
  +3.96475625479e+000
  +3.75335289270e+000
  +3.52735138658e+000
  +3.28751271732e+000
  +3.03465096623e+000
  +2.76963399125e+000
  +2.49338583626e+000
  +2.20689236447e+000
  +1.91121318706e+000
  +1.60750680208e+000
  +1.29708642234e+000
  +9.81558161012e-001
  +6.63233716558e-001
  +3.46867732976e-001
  +5.68916711491e-002
  +1.02776468041e-006
  -1.94895199273e-010
  +1.15501803547e-009
  +3.49215645419e-004
  +1.77499770037e-001
  +4.86674737351e-001
  +8.04851494614e-001
  +1.12230067265e+000
  +1.43578656395e+000
  +1.74339896361e+000
  +2.04368876121e+000
  +2.33542173219e+000
  +2.61748777851e+000
  +2.88886215076e+000
  +3.14858745962e+000
  +3.39576508954e+000
  +3.62955125381e+000
  +3.84915548512e+000
  +4.05384045353e+000
  +4.24292251703e+000
  +4.41577266690e+000
  +4.57181766674e+000
  +4.71054126004e+000
  +4.83148536584e+000
  +4.93425120858e+000
  +5.01850034551e+000
  +5.08395556584e+000
  +5.13040164361e+000
  +5.15768593124e+000
  +5.16571878494e+000
  +5.15447381622e+000
  +5.12398796610e+000
  +5.07436140119e+000
  +5.00575723297e+000
  +4.91840106388e+000
  +4.81258036643e+000
  +4.68864370502e+000
  +4.54699981390e+000
  +4.38811655075e+000
  +4.21251975283e+000
  +4.02079203514e+000
  +3.81357158766e+000
  +3.59155105841e+000
  +3.35547665715e+000
  +3.10614769852e+000
  +2.84441695434e+000
  +2.57119247224e+000
  +2.28744209743e+000
  +1.99420318966e+000
  +1.69260299846e+000
  +1.38390302416e+000
  +1.06960487929e+000
  +7.51747184859e-001
  +4.34013720372e-001
  +1.29463287980e-001
  +3.95981652233e-005
  -1.92674891329e-010
  +3.23432112770e-010
  +9.20573863607e-006
  +9.89144531278e-002
  +3.99044014849e-001
  +7.16338334170e-001
  +1.03441712521e+000
  +1.34922654493e+000
  +1.65862879551e+000
  +1.96108327916e+000
  +2.25530882934e+000
  +2.54016612666e+000
  +2.81460910883e+000
  +3.07766281833e+000
  +3.32841285354e+000
  +3.56600042652e+000
  +3.78962032005e+000
  +3.99852041215e+000
  +4.19200206497e+000
  +4.36942098514e+000
  +4.53018832395e+000
  +4.67377187554e+000
  +4.79969728214e+000
  +4.90754918649e+000
  +4.99697229065e+000
  +5.06767229293e+000
  +5.11941668281e+000
  +5.15203537985e+000
  +5.16542120646e+000
  +5.15953018819e+000
  +5.13438167733e+000
  +5.09005829848e+000
  +5.02670571668e+000
  +4.94453223105e+000
  +4.84380819951e+000
  +4.72486530313e+000
  +4.58809566241e+000
  +4.43395082301e+000
  +4.26294063571e+000
  +4.07563206582e+000
  +3.87264798350e+000
  +3.65466601201e+000
  +3.42241755264e+000
  +3.17668717687e+000
  +2.91831270381e+000
  +2.64818652013e+000
  +2.36725917343e+000
  +2.07654727477e+000
  +1.77715006142e+000
  +1.47028489370e+000
  +1.15736934781e+000
  +8.40239379909e-001
  +5.21887393084e-001
  +2.10507933748e-001
  +1.43892253248e-003
  +2.49736723379e-009
  +3.84829798148e-011
  +2.39258291841e-007
  +3.32162086458e-002
  +3.12324664975e-001
  +6.27848271740e-001
  +9.46272644503e-001
  +1.26224624668e+000
  +1.57332112475e+000
  +1.87784205128e+000
  +2.17447253200e+000
  +2.46204048729e+000
  +2.73947690967e+000
  +3.00578849155e+000
  +3.26004467872e+000
  +3.50137153176e+000
  +3.72894905082e+000
  +3.94201035409e+000
  +4.13984187560e+000
  +4.32178412302e+000
  +4.48723272834e+000
  +4.63563962967e+000
  +4.76651428159e+000
  +4.87942482701e+000
  +4.97399918522e+000
  +5.04992602502e+000
  +5.10695560072e+000
  +5.14490043550e+000
  +5.16363584120e+000
  +5.16310026692e+000
  +5.14329547206e+000
  +5.10428652129e+000
  +5.04620160178e+000
  +4.96923166493e+000
  +4.87362989723e+000
</dep>
<dep _net1.Vt time>
  +0.00000000000e+000
  -3.40813452802e-001
  -6.80526384378e-001
  -1.01804182720e+000
  -1.35226990964e+000
  -1.68213137530e+000
  -2.00656106805e+000
  -2.32451137146e+000
  -2.63495559176e+000
  -2.93689127304e+000
  -3.22934343435e+000
  -3.51136771797e+000
  -3.78205343888e+000
  -4.04052652542e+000
  -4.28595234175e+000
  -4.51753838300e+000
  -4.73453683435e+000
  -4.93624698578e+000
  -5.12201749473e+000
  -5.29124848938e+000
  -5.44339350567e+000
  -5.57796125191e+000
  -5.69451719518e+000
  -5.79268496452e+000
  -5.87214756624e+000
  -5.93264840752e+000
  -5.97399212502e+000
  -5.99604521568e+000
  -5.99873646782e+000
  -5.98205719112e+000
  -5.94606124466e+000
  -5.89086486300e+000
  -5.81664628086e+000
  -5.72364515757e+000
  -5.61216180321e+000
  -5.48255620882e+000
  -5.33524688404e+000
  -5.17070950562e+000
  -4.98947538146e+000
  -4.79212973493e+000
  -4.57930981515e+000
  -4.35170283925e+000
  -4.11004377324e+000
  -3.85511295878e+000
  -3.58773359334e+000
  -3.30876907202e+000
  -3.01912019957e+000
  -2.71972228161e+000
  -2.41154210438e+000
  -2.09557481297e+000
  -1.77284069781e+000
  -1.44438190012e+000
  -1.11125904669e+000
  -7.74547825023e-001
  -4.35335509823e-001
  -9.47174520818e-002
  +2.46206457924e-001
  +5.86335342292e-001
  +9.24570890334e-001
  +1.25982090514e+000
  +1.59100283039e+000
  +1.91704724604e+000
