<Qucs Dataset 0.0.20>
<indep Vs 101>
  +0.00000000000000000000e+00
  +3.30000000000000015543e-02
  +6.60000000000000031086e-02
  +9.90000000000000046629e-02
  +1.32000000000000006217e-01
  +1.65000000000000007772e-01
  +1.98000000000000009326e-01
  +2.31000000000000010880e-01
  +2.64000000000000012434e-01
  +2.97000000000000041744e-01
  +3.30000000000000015543e-01
  +3.62999999999999989342e-01
  +3.96000000000000018652e-01
  +4.29000000000000047962e-01
  +4.62000000000000021760e-01
  +4.94999999999999995559e-01
  +5.28000000000000024869e-01
  +5.61000000000000054179e-01
  +5.94000000000000083489e-01
  +6.27000000000000001776e-01
  +6.60000000000000031086e-01
  +6.93000000000000060396e-01
  +7.25999999999999978684e-01
  +7.59000000000000007994e-01
  +7.92000000000000037303e-01
  +8.25000000000000066613e-01
  +8.58000000000000095923e-01
  +8.91000000000000014211e-01
  +9.24000000000000043521e-01
  +9.57000000000000072831e-01
  +9.89999999999999991118e-01
  +1.02300000000000013145e+00
  +1.05600000000000004974e+00
  +1.08899999999999996803e+00
  +1.12200000000000010836e+00
  +1.15500000000000002665e+00
  +1.18800000000000016698e+00
  +1.22100000000000008527e+00
  +1.25400000000000000355e+00
  +1.28700000000000014388e+00
  +1.32000000000000006217e+00
  +1.35299999999999998046e+00
  +1.38600000000000012079e+00
  +1.41900000000000003908e+00
  +1.45199999999999995737e+00
  +1.48500000000000009770e+00
  +1.51800000000000001599e+00
  +1.55100000000000015632e+00
  +1.58400000000000007461e+00
  +1.61699999999999999289e+00
  +1.65000000000000013323e+00
  +1.68300000000000005151e+00
  +1.71600000000000019185e+00
  +1.74900000000000011013e+00
  +1.78200000000000002842e+00
  +1.81500000000000016875e+00
  +1.84800000000000008704e+00
  +1.88100000000000000533e+00
  +1.91400000000000014566e+00
  +1.94700000000000006395e+00
  +1.97999999999999998224e+00
  +2.01299999999999990052e+00
  +2.04600000000000026290e+00
  +2.07900000000000018119e+00
  +2.11200000000000009948e+00
  +2.14500000000000001776e+00
  +2.17799999999999993605e+00
  +2.21100000000000029843e+00
  +2.24400000000000021672e+00
  +2.27700000000000013500e+00
  +2.31000000000000005329e+00
  +2.34299999999999997158e+00
  +2.37600000000000033396e+00
  +2.40900000000000025224e+00
  +2.44200000000000017053e+00
  +2.47500000000000008882e+00
  +2.50800000000000000711e+00
  +2.54099999999999992539e+00
  +2.57400000000000028777e+00
  +2.60700000000000020606e+00
  +2.64000000000000012434e+00
  +2.67300000000000004263e+00
  +2.70599999999999996092e+00
  +2.73900000000000032330e+00
  +2.77200000000000024158e+00
  +2.80500000000000015987e+00
  +2.83800000000000007816e+00
  +2.87099999999999999645e+00
  +2.90399999999999991473e+00
  +2.93700000000000027711e+00
  +2.97000000000000019540e+00
  +3.00300000000000011369e+00
  +3.03600000000000003197e+00
  +3.06899999999999995026e+00
  +3.10200000000000031264e+00
  +3.13500000000000023093e+00
  +3.16800000000000014921e+00
  +3.20100000000000006750e+00
  +3.23399999999999998579e+00
  +3.26700000000000034817e+00
  +3.30000000000000026645e+00
</indep>
<dep Vce1.V Vs>
  +4.99999999995709920597e+00
  +4.99999999994868016273e+00
  +4.99999999991822718926e+00
  +4.99999999980879739070e+00
  +4.99999999941631578793e+00
  +4.99999999800935235328e+00
  +4.99999999296644226376e+00
  +4.99999997489207181900e+00
  +4.99999991011221567305e+00
  +4.99999967793729638288e+00
  +4.99999884580982456583e+00
  +4.99999586343027413449e+00
  +4.99998517458187219376e+00
  +4.99994686733578319604e+00
  +4.99980960021985509911e+00
  +4.99931798948643724145e+00
  +4.99756066522157116339e+00
  +4.99132099497294934309e+00
  +4.96967332767640090907e+00
  +4.89984918640162447900e+00
  +4.71199556293256716089e+00
  +4.33926565593324831127e+00
  +3.96475321890301657390e+00
  +3.54219605030210260566e+00
  +3.06963850416489947293e+00
  +2.56283301358014625748e+00
  +2.03220248980477435907e+00
  +1.48439912885916669438e+00
  +9.23779157623414448608e-01
  +3.53749014514107784635e-01
  +1.79281321573741436737e-01
  +1.57082824814984256534e-01
  +1.45226931499041977958e-01
  +1.37135269267452120090e-01
  +1.31000635815971433473e-01
  +1.26066220310921295322e-01
  +1.21943149550281182414e-01
  +1.18405158926181863777e-01
  +1.15309010256873234468e-01
  +1.12558297704819398888e-01
  +1.10085040211800988530e-01
  +1.07839508854331356247e-01
  +1.05784231032706177444e-01
  +1.03890269636528032038e-01
  +1.02134814433786136334e-01
  +1.00499566958842878606e-01
  +9.89696246157973913427e-02
  +9.75326896289060440992e-02
  +9.61784956152605952084e-02
  +9.48983836909444988805e-02
  +9.36849836425045490174e-02
  +9.25319703938642934560e-02
  +9.14338753953261029750e-02
  +9.03859387146394022139e-02
  +8.93839917274296125171e-02
  +8.84243631133422303137e-02
  +8.75038028148328317357e-02
  +8.66194199919202434401e-02
  +8.57686319917911887956e-02
  +8.49491220674878366736e-02
  +8.41588041055697511084e-02
  +8.33957930134298086600e-02
  +8.26583797105441275832e-02
  +8.19450098907379409496e-02
  +8.12542658931807437739e-02
  +8.05848511516642496133e-02
  +7.99355767943676909226e-02
  +7.93053500469032002229e-02
  +7.86931641551064098294e-02
  +7.80980895947142039759e-02
  +7.75192663756673061570e-02
  +7.69558972814586850220e-02
  +7.64072419104420141878e-02
  +7.58726114076195834457e-02
  +7.53513637930653956687e-02
  +7.48428998077176332870e-02
  +7.43466592092805189651e-02
  +7.38621174609568331704e-02
  +7.33887827640653522820e-02
  +7.29261933925660077449e-02
  +7.24739152933684405156e-02
  +7.20315399212544393848e-02
  +7.15986822814105305923e-02
  +7.11749791561444578036e-02
  +7.07600874953661085343e-02
  +7.03536829530242435737e-02
  +6.99554585538950668422e-02
  +6.95651234770419124587e-02
  +6.91824019438993520481e-02
  +6.88070322003792034238e-02
  +6.84387655836012909205e-02
  +6.80773656649666936147e-02
  +6.77226074621840590240e-02
  +6.73742767137036624447e-02
  +6.70321692097233245988e-02
  +6.66960901745528023099e-02
  +6.63658536956768241311e-02
  +6.60412821953449968859e-02
  +6.57222059409442449507e-02
  +6.54084625907854766425e-02
  +6.50998967722792309942e-02
</dep>
<dep Vce2.V Vs>
  +4.99999999999996358468e+00
  +4.99999999999996358468e+00
  +4.99999999999996358468e+00
  +4.99999999999996358468e+00
  +4.99999999999996358468e+00
  +4.99999999999996358468e+00
  +4.99999999999996358468e+00
  +4.99999999999996358468e+00
  +4.99999999999996358468e+00
  +4.99999999999996358468e+00
  +4.99999999999996358468e+00
  +4.99999999999996358468e+00
  +4.99999999999996358468e+00
  +4.99999999999996358468e+00
  +4.99999999999996358468e+00
  +4.99999999999996358468e+00
  +4.99999999999996269651e+00
  +4.99999999999996180833e+00
  +4.99999999999995203837e+00
  +4.99999999999971933562e+00
  +4.99999999964165997568e+00
  +4.99945847967428846914e+00
  +4.96954837614722144679e+00
  +4.92536160654486732113e+00
  +4.87456351389220365888e+00
  +4.81953183758101388889e+00
  +4.76161981570392711660e+00
  +4.70165358568152402796e+00
  +4.64016353633971601056e+00
  +4.57755517784949006455e+00
  +4.55837934160278646090e+00
  +4.55593909881125025407e+00
  +4.55463576551241544621e+00
  +4.55374622489905700462e+00
  +4.55307181878006606013e+00
  +4.55252935298301064648e+00
  +4.55207607930306679123e+00
  +4.55168712464036850918e+00
  +4.55134674282486439978e+00
  +4.55104433590533474785e+00
  +4.55077243064658976124e+00
  +4.55052556026731735983e+00
  +4.55029960532742716595e+00
  +4.55009138469924057091e+00
  +4.54989839078953828277e+00
  +4.54971861199013716259e+00
  +4.54955041000685245223e+00
  +4.54939243289882710997e+00
  +4.54924355204103836314e+00
  +4.54910281552507189673e+00
  +4.54896941310980196249e+00
  +4.54884264944932859009e+00
  +4.54872192335857583601e+00
  +4.54860671155333484705e+00
  +4.54849655575411038200e+00
  +4.54839105235201301980e+00
  +4.54828984404935710018e+00
  +4.54819261303878175084e+00
  +4.54809907539336677473e+00
  +4.54800897641846191277e+00
  +4.54792208677408282824e+00
  +4.54783819921948495590e+00
  +4.54775712586383917824e+00
  +4.54767869583147543722e+00
  +4.54760275326890806014e+00
  +4.54752915563525217379e+00
  +4.54745777222910252391e+00
  +4.54738848291358621623e+00
  +4.54732117700857063625e+00
  +4.54725575232426226790e+00
  +4.54719211431520875522e+00
  +4.54713017533704544348e+00
  +4.54706985399144603122e+00
  +4.54701107454693254084e+00
  +4.54695376642532522737e+00
  +4.54689786374504123501e+00
  +4.54684330491387100892e+00
  +4.54679003226496991630e+00
  +4.54673799173063741819e+00
  +4.54668713254924838907e+00
  +4.54663740700148633067e+00
  +4.54658877017230089734e+00
  +4.54654117973571381128e+00
  +4.54649459575986547577e+00
  +4.54644898053008095218e+00
  +4.54640429838796933382e+00
  +4.54636051558484233226e+00
  +4.54631760014798569358e+00
  +4.54627552175841476156e+00
  +4.54623425163895955592e+00
  +4.54619376245168815842e+00
  +4.54615402820367364711e+00
  +4.54611502416038160135e+00
  +4.54607672676589391614e+00
  +4.54603911356937473442e+00
  +4.54600216315715233151e+00
  +4.54596585508997286240e+00
  +4.54593016984487441334e+00
  +4.54589508876139536397e+00
  +4.54586059399162412120e+00
  +4.54582666845381933030e+00
</dep>
<dep V_load.V Vs>
  +3.50025548136825177727e-14
  +3.50025548152686204414e-14
  +3.50025548210063402821e-14
  +3.50025548416236870457e-14
  +3.50025549155704480720e-14
  +3.50025551806529179099e-14
  +3.50000099325156890083e-14
  +3.50000133378810848222e-14
  +3.50000255429779192452e-14
  +3.50000692870409394626e-14
  +3.50002260714429917451e-14
  +3.50007880358332864708e-14
  +3.50028026629921867252e-14
  +3.50100298151258792043e-14
  +3.50360174664722713836e-14
  +3.51302604540413278565e-14
  +3.54825646226665703567e-14
  +3.69513290275575275171e-14
  +4.60081312717374832906e-14
  +2.70172403059131727740e-13
  +3.44557650188009077773e-10
  +5.20692620876179036553e-04
  +2.92804075507486216701e-02
  +7.17676860145510658873e-02
  +1.20612005872880720392e-01
  +1.73527079249024995811e-01
  +2.29211715669300486464e-01
  +2.86871552229303883319e-01
  +3.45996599673350169191e-01
  +4.06196944375490198720e-01
  +4.24635248458858860499e-01
  +4.26981635758413025084e-01
  +4.28234840853446541153e-01
  +4.29090168366291269120e-01
  +4.29738635788397882465e-01
  +4.30260237516336074837e-01
  +4.30696077593204607048e-01
  +4.31070072461184006229e-01
  +4.31397362668399897423e-01
  +4.31688138552562716832e-01
  +4.31949585916740985692e-01
  +4.32186961281425974235e-01
  +4.32404225646704332142e-01
  +4.32604437789191997865e-01
  +4.32790008856212826682e-01
  +4.32962873086406185852e-01
  +4.33124605762642223006e-01
  +4.33276506828050411713e-01
  +4.33419661499001629412e-01
  +4.33554985072045873107e-01
  +4.33683256625190249878e-01
  +4.33805144760260552594e-01
  +4.33921227539830978159e-01
  +4.34032008121793100308e-01
  +4.34137927159509218189e-01
  +4.34239372738448647926e-01
  +4.34336688414080074327e-01
  +4.34430179770402380424e-01
  +4.34520119814070737707e-01
  +4.34606753443786963942e-01
  +4.34690301178766169699e-01
  +4.34770962288956619446e-01
  +4.34848917438616089370e-01
  +4.34924330931273250833e-01
  +4.34997352626049993418e-01
  +4.35068119581488055303e-01
  +4.35136757472016522108e-01
  +4.35203381813859091487e-01
  +4.35268099030220567691e-01
  +4.35331007380516832317e-01
  +4.35392197773837918984e-01
  +4.35451754483610065094e-01
  +4.35509755777455431769e-01
  +4.35566274474103509728e-01
  +4.35621378437187511956e-01
  +4.35675131014383709704e-01
  +4.35727591428970495446e-01
  +4.35778815129836405440e-01
  +4.35828854105156537901e-01
  +4.35877757164184587158e-01
  +4.35925570190878297616e-01
  +4.35972336372787760972e-01
  +4.36018096407967847838e-01
  +4.36062888692436811944e-01
  +4.36106749490306477846e-01
  +4.36149713088491430835e-01
  +4.36191811937651663378e-01
  +4.36233076780782880189e-01
  +4.36273536770754977177e-01
  +4.36313219577923461223e-01
  +4.36352151488761330622e-01
  +4.36390357496467540255e-01
  +4.36427861384248716448e-01
  +4.36464685802025298411e-01
  +4.36500852337139477743e-01
  +4.36536381579661014740e-01
  +4.36571293182718755954e-01
  +4.36605605918390093922e-01
  +4.36639337729427923218e-01
  +4.36672505777284503115e-01
  +4.36705126486711836531e-01
</dep>
<dep V_adc.V Vs>
  +1.40010219254730050580e-15
  +1.40010219261074464410e-15
  +1.40010219284025327207e-15
  +1.40010219366494719784e-15
  +1.40010219662281784399e-15
  +1.40010220722611657440e-15
  +1.40000039730062723690e-15
  +1.40000053351524325089e-15
  +1.40000102171911673037e-15
  +1.40000277148163733396e-15
  +1.40000904285771944892e-15
  +1.40003152143333138783e-15
  +1.40011210651968768200e-15
  +1.40040119260503527073e-15
  +1.40144069865889092634e-15
  +1.40521041816165307482e-15
  +1.41930258490666270383e-15
  +1.47805316110230122690e-15
  +1.84032525086949958406e-15
  +1.08068961223652878529e-14
  +1.37823060075208826191e-11
  +2.08277048350471614621e-05
  +1.17121630202994477139e-03
  +2.87070744058204232324e-03
  +4.82448023491523041162e-03
  +6.94108316996099906915e-03
  +9.16846862677201876468e-03
  +1.14748620891721546389e-02
  +1.38398639869340058656e-02
  +1.62478777750196048957e-02
  +1.69854099383543559465e-02
  +1.70792654303365196156e-02
  +1.71293936341378599808e-02
  +1.71636067346516534016e-02
  +1.71895454315359151598e-02
  +1.72104095006534417445e-02
  +1.72278431037281819227e-02
  +1.72428028984473562246e-02
  +1.72558945067359977010e-02
  +1.72675255421025110325e-02
  +1.72779834366696347092e-02
  +1.72874784512570371653e-02
  +1.72961690258681723142e-02
  +1.73041775115676810248e-02
  +1.73116003542485123734e-02
  +1.73185149234562490994e-02
  +1.73249842305056890590e-02
  +1.73310602731220168848e-02
  +1.73367864599600629560e-02
  +1.73421994028818346467e-02
  +1.73473302650076072196e-02
  +1.73522057904104201609e-02
  +1.73568491015932378774e-02
  +1.73612803248717230409e-02
  +1.73655170863803685888e-02
  +1.73695749095379436966e-02
  +1.73734675365632036670e-02
  +1.73772071908160942455e-02
  +1.73808047925628275654e-02
  +1.73842701377514771699e-02
  +1.73876120471506481757e-02
  +1.73908384915582615859e-02
  +1.73939566975446421870e-02
  +1.73969732372509303109e-02
  +1.73998941050419950183e-02
  +1.74027247832595211019e-02
  +1.74054702988806590802e-02
  +1.74081352725543592186e-02
  +1.74107239612088238179e-02
  +1.74132402952206707947e-02
  +1.74156879109535166206e-02
  +1.74180701793444012160e-02
  +1.74203902310982143564e-02
  +1.74226509789641402504e-02
  +1.74248551374875000619e-02
  +1.74270052405753467228e-02
  +1.74291036571588182913e-02
  +1.74311526051934527481e-02
  +1.74331541642062624875e-02
  +1.74351102865673811271e-02
  +1.74370228076351288515e-02
  +1.74388934549115116879e-02
  +1.74407238563187155789e-02
  +1.74425155476974728941e-02
  +1.74442699796122577260e-02
  +1.74459885235396551517e-02
  +1.74476724775060633432e-02
  +1.74493230712313152075e-02
  +1.74509414708301988095e-02
  +1.74525287831169342856e-02
  +1.74540860595504554453e-02
  +1.74556142998587016102e-02
  +1.74571144553699458823e-02
  +1.74585874320810144344e-02
  +1.74600340934855761954e-02
  +1.74614552631864421162e-02
  +1.74628517273087494055e-02
  +1.74642242367356037569e-02
  +1.74655735091771152634e-02
  +1.74669002310913791531e-02
  +1.74682050594684688816e-02
</dep>
<dep Ib1.I Vs>
  -6.00025547993000420068e-16
  -6.00025547991832905928e-16
  -6.00025547987609246034e-16
  -6.00025547972432646901e-16
  -6.00025547917999765326e-16
  -6.00025547722870090039e-16
  -6.00000085040870954262e-16
  -6.00000082534284952230e-16
  -6.00000073550494388845e-16
  -6.00000041351994666089e-16
  -5.99999925950166493829e-16
  -5.99999512336692161390e-16
  -5.99998029836634052594e-16
  -5.99992715370991440124e-16
  -5.99973653849969480603e-16
  -5.99905152525246413392e-16
  -5.99657095280256933607e-16
  -5.98733135632903100269e-16
  -5.94735360537091927867e-16
  -5.42850267074133131356e-16
  +6.83336185080978521572e-14
  +1.04138523634529924092e-07
  +5.85608150962260424246e-06
  +1.43535372023901289143e-05
  +2.41224011740620086156e-05
  +3.47054158492976109552e-05
  +4.58423431333589923844e-05
  +5.73743104453663843221e-05
  +6.91993199341798832097e-05
  +8.12393888746150850521e-05
  +8.49270496912907636809e-05
  +8.53963271512014134327e-05
  +8.56469681702091100144e-05
  +8.58180336727772916138e-05
  +8.59477271571986806359e-05
  +8.60520475027872351311e-05
  +8.61392155181605381200e-05
  +8.62140144917586485071e-05
  +8.62794725332023101699e-05
  +8.63376277100340268128e-05
  +8.63899171828701282084e-05
  +8.64373922558071534992e-05
  +8.64808451288628460491e-05
  +8.65208875573604031545e-05
  +8.65580017707645994708e-05
  +8.65925746168037108186e-05
  +8.66249211520505273511e-05
  +8.66553013651321794907e-05
  +8.66839322993224152677e-05
  +8.67109970139308481717e-05
  +8.67366513245597338042e-05
  +8.67610289515742565862e-05
  +8.67842455074879028142e-05
  +8.68064016238803611578e-05
  +8.68275854314240149888e-05
  +8.68478745472114541364e-05
  +8.68673376823386549604e-05
  +8.68860359536026654985e-05
  +8.69040239623363537820e-05
  +8.69213506882796072255e-05
  +8.69380602352750063476e-05
  +8.69541924573131422456e-05
  +8.69697834872458930972e-05
  +8.69848661857773391374e-05
  +8.69994705247326594218e-05
  +8.70136239158194284412e-05
  +8.70273514939255780345e-05
  +8.70406763622936531771e-05
  +8.70536198055664033491e-05
  +8.70662014756256349805e-05
  +8.70784395542898798310e-05
  +8.70903508962438729218e-05
  +8.71019511550133853153e-05
  +8.71132548943430229165e-05
  +8.71242756869598344426e-05
  +8.71350262023995149807e-05
  +8.71455182853164180001e-05
  +8.71557630254887549066e-05
  +8.71657708205536633757e-05
  +8.71755514323592657893e-05
  +8.71851140376980260956e-05
  +8.71944672740799223880e-05
  +8.72036192811163625134e-05
  +8.72125777380101740261e-05
  +8.72213498975836823944e-05
  +8.72299426172206483808e-05
  +8.72383623870527191539e-05
  +8.72466153556789399863e-05
  +8.72547073536738323346e-05
  +8.72626439151070722395e-05
  +8.72704302972746688224e-05
  +8.72780714988159148256e-05
  +8.72855722763721394390e-05
  +8.72929371599270170767e-05
  +8.73001704669498627444e-05
  +8.73072763154537494516e-05
  +8.73142586360661613915e-05
  +8.73211211832004504958e-05
  +8.73278675454075548317e-05
  +8.73345011549788721120e-05
  +8.73410252968643511119e-05
</dep>
<dep V2.I Vs>
  +6.00025547990253113357e-16
  +5.94141308212418496723e-16
  +5.81579703725518815907e-16
  +5.45086030346896133311e-16
  +4.22818518476632387967e-16
  -6.86647258889720760818e-18
  -1.53837912122287218094e-15
  -7.01879409830723294235e-15
  -2.66523863525997351433e-14
  -9.70117553692317497692e-14
  -3.49174929557352171655e-13
  -1.25292964183596059808e-12
  -4.49197794642774624628e-12
  -1.61002376727436971986e-11
  -5.76963367541165469618e-11
  -2.06669289657276337036e-10
  -7.39191797670641986221e-10
  -2.63000096787253798873e-09
  -9.18990015413717891042e-09
  -3.03487308541555440150e-08
  -8.72740720098187671740e-08
  -2.01263913269115757953e-07
  -3.72271960450318025826e-07
  -5.85294144270611640520e-07
  -8.26182040441170220657e-07
  -1.08558960863473856767e-06
  -1.35775600994631148675e-06
  -1.63907670159058756245e-06
  -1.92721163632392976668e-06
  -2.22060714159431297349e-06
  -2.53986041596469779149e-06
  -2.86789900530646265007e-06
  -3.19652558905789023873e-06
  -3.52536727208703477862e-06
  -3.85432176220021534692e-06
  -4.18334623309376287648e-06
  -4.51241867274216620172e-06
  -4.84152626493872481638e-06
  -5.17066088844138113776e-06
  -5.49981707053528727134e-06
  -5.82899094638090096515e-06
  -6.15817968391955491454e-06
  -6.48738114488434742324e-06
  -6.81659367440304772546e-06
  -7.14581596477494889781e-06
  -7.47504696410330933429e-06
  -7.80428581315094811743e-06
  -8.13353180056363973642e-06
  -8.46278433040061123162e-06
  -8.79204289812327911043e-06
  -9.12130707252817464871e-06
  -9.45057648194092518460e-06
  -9.77985080351904114630e-06
  -1.01091297548593509804e-05
