<Qucs Dataset 0.0.20>
<indep Vs 101>
  +0.00000000000000000000e+00
  +3.30000000000000015543e-02
  +6.60000000000000031086e-02
  +9.90000000000000046629e-02
  +1.32000000000000006217e-01
  +1.65000000000000007772e-01
  +1.98000000000000009326e-01
  +2.31000000000000010880e-01
  +2.64000000000000012434e-01
  +2.97000000000000041744e-01
  +3.30000000000000015543e-01
  +3.62999999999999989342e-01
  +3.96000000000000018652e-01
  +4.29000000000000047962e-01
  +4.62000000000000021760e-01
  +4.94999999999999995559e-01
  +5.28000000000000024869e-01
  +5.61000000000000054179e-01
  +5.94000000000000083489e-01
  +6.27000000000000001776e-01
  +6.60000000000000031086e-01
  +6.93000000000000060396e-01
  +7.25999999999999978684e-01
  +7.59000000000000007994e-01
  +7.92000000000000037303e-01
  +8.25000000000000066613e-01
  +8.58000000000000095923e-01
  +8.91000000000000014211e-01
  +9.24000000000000043521e-01
  +9.57000000000000072831e-01
  +9.89999999999999991118e-01
  +1.02300000000000013145e+00
  +1.05600000000000004974e+00
  +1.08899999999999996803e+00
  +1.12200000000000010836e+00
  +1.15500000000000002665e+00
  +1.18800000000000016698e+00
  +1.22100000000000008527e+00
  +1.25400000000000000355e+00
  +1.28700000000000014388e+00
  +1.32000000000000006217e+00
  +1.35299999999999998046e+00
  +1.38600000000000012079e+00
  +1.41900000000000003908e+00
  +1.45199999999999995737e+00
  +1.48500000000000009770e+00
  +1.51800000000000001599e+00
  +1.55100000000000015632e+00
  +1.58400000000000007461e+00
  +1.61699999999999999289e+00
  +1.65000000000000013323e+00
  +1.68300000000000005151e+00
  +1.71600000000000019185e+00
  +1.74900000000000011013e+00
  +1.78200000000000002842e+00
  +1.81500000000000016875e+00
  +1.84800000000000008704e+00
  +1.88100000000000000533e+00
  +1.91400000000000014566e+00
  +1.94700000000000006395e+00
  +1.97999999999999998224e+00
  +2.01299999999999990052e+00
  +2.04600000000000026290e+00
  +2.07900000000000018119e+00
  +2.11200000000000009948e+00
  +2.14500000000000001776e+00
  +2.17799999999999993605e+00
  +2.21100000000000029843e+00
  +2.24400000000000021672e+00
  +2.27700000000000013500e+00
  +2.31000000000000005329e+00
  +2.34299999999999997158e+00
  +2.37600000000000033396e+00
  +2.40900000000000025224e+00
  +2.44200000000000017053e+00
  +2.47500000000000008882e+00
  +2.50800000000000000711e+00
  +2.54099999999999992539e+00
  +2.57400000000000028777e+00
  +2.60700000000000020606e+00
  +2.64000000000000012434e+00
  +2.67300000000000004263e+00
  +2.70599999999999996092e+00
  +2.73900000000000032330e+00
  +2.77200000000000024158e+00
  +2.80500000000000015987e+00
  +2.83800000000000007816e+00
  +2.87099999999999999645e+00
  +2.90399999999999991473e+00
  +2.93700000000000027711e+00
  +2.97000000000000019540e+00
  +3.00300000000000011369e+00
  +3.03600000000000003197e+00
  +3.06899999999999995026e+00
  +3.10200000000000031264e+00
  +3.13500000000000023093e+00
  +3.16800000000000014921e+00
  +3.20100000000000006750e+00
  +3.23399999999999998579e+00
  +3.26700000000000034817e+00
  +3.30000000000000026645e+00
</indep>
<dep V_load.V Vs>
  +1.40010219203614396165e-14
  +1.40010219203806531127e-14
  +1.40010219204505588107e-14
  +1.40010219207000550047e-14
  +1.40010219215966143561e-14
  +1.40010219248098341497e-14
  +1.40000034570200066091e-14
  +1.40000034982973222910e-14
  +1.40000036462375196658e-14
  +1.40000041764642934148e-14
  +1.40000060768272574416e-14
  +1.40000128878230290252e-14
  +1.40000372986329544327e-14
  +1.40001247859309338861e-14
  +1.40004383140209110798e-14
  +1.40015616136800518794e-14
  +1.40055782426649103941e-14
  +1.40199236806286536758e-14
  +1.40705362132915378585e-14
  +1.42430543434440880095e-14
  +1.47856781435873871922e-14
  +1.63162502418279737119e-14
  +2.03670256007426130961e-14
  +3.11262485759308652689e-14
  +6.06947239380482662033e-14
  +1.45054644201497940655e-13
  +3.93634938532310481745e-13
  +1.14551916725241865705e-12
  +3.46781777095304953718e-12
  +1.07622638921104806207e-11
  +3.39904071043013613009e-11
  +1.08797528057864847471e-10
  +3.52002044376734592240e-10
  +1.14902135491028374911e-09
  +3.77888169475803631806e-09
  +1.25077729140963279041e-08
  +4.16295782557031472196e-08
  +1.39226677769489277444e-07
  +4.67610351316679988689e-07
  +1.57636830141886600229e-06
  +5.33088782649330495501e-06
  +1.80688731869297955338e-05
  +6.12560257375949142626e-05
  +2.06423289155239152951e-04
  +6.78486443662142677327e-04
  +2.07016272946592035098e-03
  +5.39050696085820527093e-03
  +1.13190237439749815523e-02
  +1.95908166709803030492e-02
  +2.95389996885717653896e-02
  +4.06132874340841901195e-02
  +5.24549183567657728577e-02
  +6.48389816938468727114e-02
  +7.76215620584671112114e-02
  +9.07072079341959686127e-02
  +1.04030222070046918237e-01
  +1.17543824145410674697e-01
  +1.31213690990237719092e-01
  +1.45013973870759343976e-01
  +1.58924759845249591317e-01
  +1.72930402745676253806e-01
  +1.87018394638575058408e-01
  +2.01178583219252415937e-01
  +2.15402616657130396849e-01
  +2.29683541690307108096e-01
  +2.44015507286548222199e-01
  +2.58393542499345929553e-01
  +2.72813387430542120260e-01
  +2.87271362840930244431e-01
  +3.01764268316602357611e-01
  +3.16289301829096869412e-01
  +3.30843995529044365700e-01
  +3.45426164003132973868e-01
  +3.60033862204218069181e-01
  +3.74665350964543286683e-01
  +3.89319068509170140846e-01
  +4.03993606758877743523e-01
  +4.18687691486251400974e-01
  +4.33400165596150688252e-01
  +4.48129974956827825672e-01
  +4.62876156327457100037e-01
  +4.77637827019414873408e-01
  +4.92414176000037340231e-01
  +5.07204456202791753583e-01
  +5.22007977851846050044e-01
  +5.36824102644300360510e-01
  +5.51652238659699700740e-01
  +5.66491835890640560436e-01
  +5.81342382304782745450e-01
  +5.96203400363680025009e-01
  +6.11074443936205136119e-01
  +6.25955095553498264138e-01
  +6.40844963960770397371e-01
  +6.55743681928240951251e-01
  +6.70650904288453197921e-01
  +6.85566306172405770525e-01
  +7.00489581420545959212e-01
  +7.15420441148238772655e-01
  +7.30358612447621124986e-01
  +7.45303837210740338648e-01
  +7.60255871060364629699e-01
</dep>
<dep Vce2.V Vs>
  +4.99999999999998490097e+00
  +4.99999999999998490097e+00
  +4.99999999999998490097e+00
  +4.99999999999998490097e+00
  +4.99999999999998490097e+00
  +4.99999999999998490097e+00
  +4.99999999999998490097e+00
  +4.99999999999998490097e+00
  +4.99999999999998490097e+00
  +4.99999999999998490097e+00
  +4.99999999999998490097e+00
  +4.99999999999998490097e+00
  +4.99999999999998490097e+00
  +4.99999999999998490097e+00
  +4.99999999999998490097e+00
  +4.99999999999998490097e+00
  +4.99999999999998490097e+00
  +4.99999999999998490097e+00
  +4.99999999999998490097e+00
  +4.99999999999998401279e+00
  +4.99999999999998401279e+00
  +4.99999999999998223643e+00
  +4.99999999999997779554e+00
  +4.99999999999996536104e+00
  +4.99999999999993338662e+00
  +4.99999999999984012788e+00
  +4.99999999999956656893e+00
  +4.99999999999873967482e+00
  +4.99999999999618527369e+00
  +4.99999999998816146984e+00
  +4.99999999996261035307e+00
  +4.99999999988032239884e+00
  +4.99999999961279772975e+00
  +4.99999999873607681167e+00
  +4.99999999584322996071e+00
  +4.99999998624145014503e+00
  +4.99999995420746401464e+00
  +4.99999984685065435031e+00
  +4.99999948562861362689e+00
  +4.99999826599486851819e+00
  +4.99999413602339082274e+00
  +4.99998012423949411698e+00
  +4.99993261837168834205e+00
  +4.99977293438192926800e+00
  +4.99925366491197120666e+00
  +4.99772282099758768936e+00
  +4.99407044234305619312e+00
  +4.98754907388162749271e+00
  +4.97845010166192203371e+00
  +4.96750710034257192405e+00
  +4.95532538382250731246e+00
  +4.94229958980755679221e+00
  +4.92867712013676850802e+00
  +4.91461628173568421118e+00
  +4.90022207127238473845e+00
  +4.88556675572294807353e+00
  +4.87070179344004827726e+00
  +4.85566493991073855341e+00
  +4.84048462874216411933e+00
  +4.82518276417022473623e+00
  +4.80977655697975503557e+00
  +4.79427976589756621451e+00
  +4.77870355845882066603e+00
  +4.76305712167715711303e+00
  +4.74734810414066288331e+00
  +4.73158294198479723036e+00
  +4.71576710325071957186e+00
  +4.69990527382640266296e+00
  +4.68400150087497735285e+00
  +4.66805930485173803390e+00
  +4.65208176798799399876e+00
  +4.63607160491805103675e+00
  +4.62003121959655516093e+00
  +4.60396275157535939115e+00
  +4.58786811393900251232e+00
  +4.57174902463991372770e+00
  +4.55560703256523424898e+00
  +4.53944353936512356995e+00
  +4.52325981784423447607e+00
  +4.50705702754748926964e+00
  +4.49083622803979576332e+00
  +4.47459839027864259009e+00
  +4.45834440639995932543e+00
  +4.44207509817692880461e+00
  +4.42579122436296934495e+00
  +4.40949348709126986989e+00
  +4.39318253747433029588e+00
  +4.37685898052029553895e+00
  +4.36052337946473933528e+00
  +4.34417625959995223894e+00
  +4.32781811167017416153e+00
  +4.31144939489115230913e+00
  +4.29507053964315232975e+00
  +4.27868194987893524228e+00
  +4.26228400528270157110e+00
  +4.24587706321035351920e+00
  +4.22946146043739901188e+00
  +4.21303751473693743890e+00
  +4.19660552630761696236e+00
  +4.18016577906818564969e+00
  +4.16371854183359868529e+00
</dep>
<dep Vce1.V Vs>
  +4.99999999999870059497e+00
  +4.99999999999844568777e+00
  +4.99999999999752198221e+00
  +4.99999999999420641217e+00
  +4.99999999998231281495e+00
  +4.99999999993967758627e+00
  +4.99999999978686293645e+00
  +4.99999999923915439126e+00
  +4.99999999727612820521e+00
  +4.99999999024052499408e+00
  +4.99999996502454102654e+00
  +4.99999987464940254256e+00
  +4.99999955074490554097e+00
  +4.99999838991926637277e+00
  +4.99999423030969314397e+00
  +4.99997933301474084544e+00
  +4.99992608076428979302e+00
  +4.99973699984766373206e+00
  +4.99908100992957127318e+00
  +4.99696512686048777141e+00
  +4.99127259274647450127e+00
  +4.97987360862239381021e+00
  +4.96277280390509822894e+00
  +4.94147058552360718409e+00
  +4.91738179590701829369e+00
  +4.89144103908811356263e+00
  +4.86422439895746805405e+00
  +4.83609232979378944606e+00
  +4.80727883632221164589e+00
  +4.77794192776645498810e+00
  +4.74819222737639723420e+00
  +4.71810968229666727325e+00
  +4.68775368094389754958e+00
  +4.65716940066330042924e+00
  +4.62639192377468155826e+00
  +4.59544898779595900606e+00
  +4.56436287485263658681e+00
  +4.53315174835660616992e+00
  +4.50183064384800690760e+00
  +4.47041230075477091788e+00
  +4.43890814389131982409e+00
  +4.40733025251861842975e+00
  +4.37569698761752601257e+00
  +4.34405069287635114961e+00
  +4.31250953691291982750e+00
  +4.28137486633561525906e+00
  +4.25115558978234187038e+00
  +4.22219532780181605602e+00
  +4.19436506389951624385e+00
  +4.16733441303026896918e+00
  +4.14083096873855360798e+00
  +4.11467780801297955406e+00
  +4.08876469106386153385e+00
  +4.06302166421357213721e+00
  +4.03740282008111783796e+00
  +4.01187696488076372958e+00
  +3.98642221867753487885e+00
  +3.96102280177334975519e+00
  +3.93566705740920319556e+00
  +3.91034619463713095655e+00
  +3.88505346442795929107e+00
  +3.85978360467928949262e+00
  +3.83453245704767953228e+00
  +3.80929669652844848926e+00
  +3.78407363681902619845e+00
  +3.75886108774025728962e+00
  +3.73365724912725127638e+00
  +3.70846063072799791982e+00
  +3.68326999095072249446e+00
  +3.65808428947377750617e+00
  +3.63290265018830549337e+00
  +3.60772433193745456492e+00
  +3.58254870520549273394e+00
  +3.55737523339412620160e+00
  +3.53220345766958043754e+00
  +3.50703298461402424024e+00
  +3.48186347609697177674e+00
  +3.45669464091823774865e+00
  +3.43152622787365357837e+00
  +3.40635801997184195500e+00
  +3.38118982958749958456e+00
  +3.35602149438114505386e+00
  +3.33085287384963502078e+00
  +3.30568384639839640826e+00
  +3.28051430684701950113e+00
  +3.25534416429694184458e+00
  +3.23017334030244107623e+00
  +3.20500176729694796762e+00
  +3.17982938723520858204e+00
  +3.15465615041842939448e+00
  +3.12948201447498064454e+00
  +3.10430694347398850041e+00
  +3.07913090715298976008e+00
  +3.05395388024279590411e+00
  +3.02877584187700543694e+00
  +3.00359677507373357130e+00
  +2.97841666628057843980e+00
  +2.95323550497385856062e+00
  +2.92805328330552638860e+00
  +2.90286999579125692961e+00
  +2.87768563903475182997e+00
</dep>
<dep V_adc.V Vs>
  +1.40010219203615867391e-15
  +1.40010219203809868009e-15
  +1.40010219204503395074e-15
  +1.40010219207003630548e-15
  +1.40010219215964183242e-15
  +1.40010219248097386975e-15
  +1.40000034570205091135e-15
  +1.40000034982975218729e-15
  +1.40000036462375851413e-15
  +1.40000041764645734604e-15
  +1.40000060768274984386e-15
  +1.40000128878232834329e-15
  +1.40000372986330301634e-15
  +1.40001247859309575519e-15
  +1.40004383140209205462e-15
  +1.40015616136798988403e-15
  +1.40055782426651281197e-15
  +1.40199236806290402177e-15
  +1.40705362132918033102e-15
  +1.42430543434446753165e-15
  +1.47856781435880703457e-15
  +1.63162502418291518756e-15
  +2.03670256007436323044e-15
  +3.11262485759324374687e-15
  +6.06947239380558014027e-15
  +1.45054644201512992121e-14
  +3.93634938532364149530e-14
  +1.14551916725231621872e-13
  +3.46781777095345706903e-13
  +1.07622638921108921916e-12
  +3.39904071043040181340e-12
  +1.08797528057865968688e-11
  +3.52002044376653399293e-11
  +1.14902135491050533011e-10
  +3.77888169475805038013e-10
  +1.25077729140907779358e-09
  +4.16295782556932359415e-09
  +1.39226677769486402164e-08
  +4.67610351316637134115e-08
  +1.57636830141926474305e-07
  +5.33088782649474681684e-07
  +1.80688731869345334126e-06
  +6.12560257376119057435e-06
  +2.06423289155344876216e-05
  +6.78486443662481897082e-05
  +2.07016272946667625673e-04
  +5.39050696085823215914e-04
  +1.13190237439752595418e-03
  +1.95908166709810602560e-03
  +2.95389996885719787606e-03
  +4.06132874340849742145e-03
  +5.24549183567654762200e-03
  +6.48389816938462100471e-03
  +7.76215620584689691003e-03
  +9.07072079341929120300e-03
  +1.04030222070050151761e-02
  +1.17543824145410515103e-02
  +1.31213690990237240308e-02
  +1.45013973870765349589e-02
  +1.58924759845247808021e-02
  +1.72930402745678259147e-02
  +1.87018394638578319689e-02
  +2.01178583219251382042e-02
  +2.15402616657124762467e-02
  +2.29683541690300085936e-02
  +2.44015507286545474397e-02
  +2.58393542499345124641e-02
  +2.72813387430552133084e-02
  +2.87271362840924027182e-02
  +3.01764268316596084851e-02
  +3.16289301829091387686e-02
  +3.30843995529045975523e-02
  +3.45426164003118374435e-02
  +3.60033862204225674208e-02
  +3.74665350964541940537e-02
  +3.89319068509161383962e-02
  +4.03993606758880352547e-02
  +4.18687691486250013195e-02
  +4.33400165596148634339e-02
  +4.48129974956829046917e-02
  +4.62876156327462345841e-02
  +4.77637827019416691399e-02
  +4.92414176000033343428e-02
  +5.07204456202794765063e-02
  +5.22007977851846050044e-02
  +5.36824102644300402143e-02
  +5.51652238659699686862e-02
  +5.66491835890640602069e-02
  +5.81342382304782731572e-02
  +5.96203400363680066643e-02
  +6.11074443936205149996e-02
  +6.25955095553498291894e-02
  +6.40844963960770369615e-02
  +6.55743681928240840229e-02
  +6.70650904288453142410e-02
  +6.85566306172405715014e-02
  +7.00489581420545986967e-02
  +7.15420441148238717144e-02
  +7.30358612447621069474e-02
  +7.45303837210740394159e-02
  +7.60255871060364629699e-02
</dep>
<dep Ib1.I Vs>
  -6.00025548002408671046e-16
  -6.00025548002373566736e-16
  -6.00025548002245771269e-16
  -6.00025548001785668146e-16
  -6.00025548000136061386e-16
  -6.00025547994222858648e-16
  -6.00000085990377663590e-16
  -6.00000085914420515001e-16
  -6.00000085642184518002e-16
  -6.00000084666474709024e-16
  -6.00000081169476502892e-16
  -6.00000068636081853657e-16
  -6.00000023716294520501e-16
  -5.99999862729153751382e-16
  -5.99999285844177032767e-16
  -5.99997219566250151011e-16
  -5.99989726082845662608e-16
  -5.99963456189134213697e-16
  -5.99871894933612303299e-16
  -5.99571931654460765359e-16
  -5.98725673743837673268e-16
  -5.96809090167057759089e-16
  -5.93056521012169532484e-16
  -5.85525385216306659557e-16
  -5.68308179494018591817e-16
  -5.23508202604920796977e-16
  -3.96469174444656972201e-16
  -1.76857207377879679619e-17
  +1.14637374433219891699e-15
  +4.79655983307040837598e-15
  +1.64136361593142445110e-14
  +5.38202349735846391613e-14
  +1.75425559089600678327e-13
  +5.73938303369002635684e-13
  +1.88887158181841375011e-12
  +6.25332031672557262604e-12
  +2.08142261272179810528e-11
  +6.96127790364098676528e-11
  +2.33804618973431443851e-10
  +7.88183597197885320487e-10
  +2.66544336291727403799e-09
  +9.03443604632909575481e-09
  +3.06280123248477945377e-08
  +1.03211644036914771530e-07
  +3.39243221293712112266e-07
  +1.03508136419862499055e-06
  +2.69525347989735026912e-06
  +5.65951187145834493688e-06
  +9.79540833496312242064e-06
  +1.47694998437618487129e-05
  +2.03066437165202919729e-05
  +2.62274591778622893543e-05
  +3.24194908464032387554e-05
  +3.88107810287171401363e-05
  +4.53536039665825477089e-05
  +5.20151110345093211783e-05
  +5.87719120721932262704e-05
  +6.56068454946052721094e-05
  +7.25069869348703762574e-05
  +7.94623799221192832513e-05
  +8.64652013723330944723e-05
  +9.35091973187854720410e-05
  +1.00589291609118859573e-04
  +1.07701308328059635060e-04
  +1.14841770844658022806e-04
  +1.22007753642778825104e-04
  +1.29196771249182453065e-04
  +1.36406693714784097880e-04
  +1.43635681419975163448e-04
  +1.50882134157813760757e-04
  +1.58144650914061104261e-04
  +1.65421997764033030295e-04
  +1.72713082001086677816e-04
  +1.80016931101637488177e-04
  +1.87332675481798223427e-04
  +1.94659534254113057153e-04
  +2.01996803378962742426e-04
  +2.09343845742646805135e-04
  +2.16700082797597752852e-04
  +2.24064987477942028152e-04
  +2.31438078163253392128e-04
  +2.38818913509230299277e-04
  +2.46207087999549131211e-04
  +2.53602228100920112398e-04
  +2.61003988925462130678e-04
  +2.68412051321690269499e-04
  +2.75826119329389859818e-04
  +2.83245917944865358961e-04
  +2.90671191151935259279e-04
  +2.98101700181388018594e-04
  +3.05537221967652685307e-04
  +3.12977547776300808833e-04
  +3.20422481979938059832e-04
  +3.27871840963674218879e-04
  +3.35325452143784956145e-04
  +3.42783153085762857908e-04
  +3.50244790709832939674e-04
  +3.57710220573680918055e-04
  +3.65179306223372161441e-04
  +3.72651918604936956397e-04
  +3.80127935529747163802e-04
</dep>
<dep i_load.I Vs>
  +7.00051096018079336955e-16
  +7.00051096019049340046e-16
  +7.00051096022516975370e-16
  +7.00051096035018152742e-16
  +7.00051096079820916209e-16
  +7.00051096240486934876e-16
  +7.00000172851025455676e-16
  +7.00000174914876093643e-16
  +7.00000182311879257063e-16
  +7.00000208823228673021e-16
  +7.00000303841374921928e-16
  +7.00000644391164171644e-16
  +7.00001864931651508168e-16
  +7.00006239296547877594e-16
  +7.00021915701046027308e-16
  +7.00078080683994942017e-16
  +7.00278912133256405987e-16
  +7.00996184031452010883e-16
  +7.03526810664590165512e-16
  +7.12152717172233765823e-16
  +7.39283907179403517285e-16
  +8.15812512091457593782e-16
  +1.01835128003718161522e-15
  +1.55631242879662187344e-15
  +3.03473619690279007013e-15
  +7.25273221007564960603e-15
  +1.96817469266182074765e-14
  +5.72759583626158109362e-14
  +1.73390888547672853452e-13
  +5.38113194605544609578e-13
  +1.69952035521520090670e-12
  +5.43987640289329843440e-12
  +1.76001022188326699647e-11
  +5.74510677455252665057e-11
  +1.88944084737902519006e-10
  +6.25388645704538896791e-10
  +2.08147891278466179707e-09
  +6.96133388847432010820e-09
  +2.33805175658318567058e-08
  +7.88184150709632371523e-08
  +2.66544391324737340842e-07
  +9.03443659346726670631e-07
  +3.06280128688059528717e-06
  +1.03211644577672438108e-05
  +3.39243221831240948541e-05
  +1.03508136473333812837e-04
  +2.69525348042911607957e-04
  +5.65951187198762977089e-04
  +9.79540833549053012799e-04
  +1.47694998442859893803e-03
  +2.03066437170424871073e-03
  +2.62274591783827381100e-03
  +3.24194908469231050235e-03
  +3.88107810292344845501e-03
