<Qucs Dataset 0.0.20>
<indep time 201>
  +0.00000000000000000000e+00
  +2.50000000000000011980e-05
  +5.00000000000000023961e-05
  +7.50000000000000069823e-05
  +1.00000000000000004792e-04
  +1.25000000000000002602e-04
  +1.50000000000000013965e-04
  +1.74999999999999998222e-04
  +2.00000000000000009584e-04
  +2.25000000000000020947e-04
  +2.50000000000000005204e-04
  +2.75000000000000016567e-04
  +3.00000000000000027929e-04
  +3.25000000000000039291e-04
  +3.49999999999999996444e-04
  +3.75000000000000007806e-04
  +4.00000000000000019169e-04
  +4.25000000000000030531e-04
  +4.50000000000000041894e-04
  +4.74999999999999999046e-04
  +5.00000000000000010408e-04
  +5.25000000000000075981e-04
  +5.50000000000000033133e-04
  +5.74999999999999990286e-04
  +6.00000000000000055858e-04
  +6.25000000000000013010e-04
  +6.50000000000000078583e-04
  +6.75000000000000035735e-04
  +6.99999999999999992888e-04
  +7.25000000000000058460e-04
  +7.50000000000000015613e-04
  +7.75000000000000081185e-04
  +8.00000000000000038337e-04
  +8.24999999999999995490e-04
  +8.50000000000000061062e-04
  +8.75000000000000018215e-04
  +9.00000000000000083787e-04
  +9.25000000000000040939e-04
  +9.49999999999999998092e-04
  +9.75000000000000063664e-04
  +1.00000000000000002082e-03
  +1.02500000000000008639e-03
  +1.05000000000000015196e-03
  +1.07500000000000000069e-03
  +1.10000000000000006627e-03
  +1.12500000000000013184e-03
  +1.14999999999999998057e-03
  +1.17500000000000004614e-03
  +1.20000000000000011172e-03
  +1.22499999999999996045e-03
  +1.25000000000000002602e-03
  +1.27500000000000009159e-03
  +1.30000000000000015717e-03
  +1.32500000000000000590e-03
  +1.35000000000000007147e-03
  +1.37500000000000013704e-03
  +1.39999999999999998578e-03
  +1.42500000000000005135e-03
  +1.45000000000000011692e-03
  +1.47499999999999996565e-03
  +1.50000000000000003123e-03
  +1.52500000000000009680e-03
  +1.55000000000000016237e-03
  +1.57500000000000001110e-03
  +1.60000000000000007667e-03
  +1.62500000000000014225e-03
  +1.64999999999999999098e-03
  +1.67500000000000005655e-03
  +1.70000000000000012212e-03
  +1.72500000000000018770e-03
  +1.75000000000000003643e-03
  +1.77500000000000010200e-03
  +1.80000000000000016757e-03
  +1.82500000000000001631e-03
  +1.85000000000000008188e-03
  +1.87500000000000014745e-03
  +1.89999999999999999618e-03
  +1.92500000000000006176e-03
  +1.95000000000000012733e-03
  +1.97500000000000019290e-03
  +2.00000000000000004163e-03
  +2.02499999999999989037e-03
  +2.05000000000000017278e-03
  +2.07500000000000002151e-03
  +2.10000000000000030392e-03
  +2.12500000000000015266e-03
  +2.15000000000000000139e-03
  +2.17500000000000028380e-03
  +2.20000000000000013253e-03
  +2.22499999999999998126e-03
  +2.25000000000000026368e-03
  +2.27500000000000011241e-03
  +2.29999999999999996114e-03
  +2.32500000000000024356e-03
  +2.35000000000000009229e-03
  +2.37499999999999994102e-03
  +2.40000000000000022343e-03
  +2.42500000000000007216e-03
  +2.44999999999999992090e-03
  +2.47500000000000020331e-03
  +2.50000000000000005204e-03
  +2.52500000000000033445e-03
  +2.55000000000000018319e-03
  +2.57500000000000003192e-03
  +2.60000000000000031433e-03
  +2.62500000000000016306e-03
  +2.65000000000000001180e-03
  +2.67500000000000029421e-03
  +2.70000000000000014294e-03
  +2.72499999999999999167e-03
  +2.75000000000000027409e-03
  +2.77500000000000012282e-03
  +2.79999999999999997155e-03
  +2.82500000000000025396e-03
  +2.85000000000000010270e-03
  +2.87499999999999995143e-03
  +2.90000000000000023384e-03
  +2.92500000000000008257e-03
  +2.94999999999999993130e-03
  +2.97500000000000021372e-03
  +3.00000000000000006245e-03
  +3.02500000000000034486e-03
  +3.05000000000000019360e-03
  +3.07500000000000004233e-03
  +3.10000000000000032474e-03
  +3.12500000000000017347e-03
  +3.15000000000000002220e-03
  +3.17500000000000030462e-03
  +3.20000000000000015335e-03
  +3.22500000000000000208e-03
  +3.25000000000000028449e-03
  +3.27500000000000013323e-03
  +3.29999999999999998196e-03
  +3.32500000000000026437e-03
  +3.35000000000000011310e-03
  +3.37499999999999996184e-03
  +3.40000000000000024425e-03
  +3.42500000000000009298e-03
  +3.45000000000000037539e-03
  +3.47500000000000022413e-03
  +3.50000000000000007286e-03
  +3.52500000000000035527e-03
  +3.55000000000000020400e-03
  +3.57500000000000005274e-03
  +3.60000000000000033515e-03
  +3.62500000000000018388e-03
  +3.65000000000000003261e-03
  +3.67500000000000031503e-03
  +3.70000000000000016376e-03
  +3.72500000000000001249e-03
  +3.75000000000000029490e-03
  +3.77500000000000014364e-03
  +3.79999999999999999237e-03
  +3.82500000000000027478e-03
  +3.85000000000000012351e-03
  +3.87499999999999997224e-03
  +3.90000000000000025466e-03
  +3.92500000000000053707e-03
  +3.95000000000000038580e-03
  +3.97500000000000023453e-03
  +4.00000000000000008327e-03
  +4.02499999999999993200e-03
  +4.04999999999999978073e-03
  +4.07500000000000049682e-03
  +4.10000000000000034556e-03
  +4.12500000000000019429e-03
  +4.15000000000000004302e-03
  +4.17499999999999989175e-03
  +4.20000000000000060785e-03
  +4.22500000000000045658e-03
  +4.25000000000000030531e-03
  +4.27500000000000015404e-03
  +4.30000000000000000278e-03
  +4.32499999999999985151e-03
  +4.35000000000000056760e-03
  +4.37500000000000041633e-03
  +4.40000000000000026507e-03
  +4.42500000000000011380e-03
  +4.44999999999999996253e-03
  +4.47499999999999981126e-03
  +4.50000000000000052736e-03
  +4.52500000000000037609e-03
  +4.55000000000000022482e-03
  +4.57500000000000007355e-03
  +4.59999999999999992228e-03
  +4.62500000000000063838e-03
  +4.65000000000000048711e-03
  +4.67500000000000033584e-03
  +4.70000000000000018457e-03
  +4.72500000000000003331e-03
  +4.74999999999999988204e-03
  +4.77500000000000059813e-03
  +4.80000000000000044686e-03
  +4.82500000000000029560e-03
  +4.85000000000000014433e-03
  +4.87499999999999999306e-03
  +4.89999999999999984179e-03
  +4.92500000000000055789e-03
  +4.95000000000000040662e-03
  +4.97500000000000025535e-03
  +5.00000000000000010408e-03
</indep>
<indep Vs 101>
  +0.00000000000000000000e+00
  +5.00000000000000027756e-02
  +1.00000000000000005551e-01
  +1.50000000000000022204e-01
  +2.00000000000000011102e-01
  +2.50000000000000000000e-01
  +3.00000000000000044409e-01
  +3.50000000000000033307e-01
  +4.00000000000000022204e-01
  +4.50000000000000011102e-01
  +5.00000000000000000000e-01
  +5.50000000000000044409e-01
  +6.00000000000000088818e-01
  +6.50000000000000022204e-01
  +7.00000000000000066613e-01
  +7.50000000000000000000e-01
  +8.00000000000000044409e-01
  +8.50000000000000088818e-01
  +9.00000000000000022204e-01
  +9.50000000000000066613e-01
  +1.00000000000000000000e+00
  +1.05000000000000004441e+00
  +1.10000000000000008882e+00
  +1.15000000000000013323e+00
  +1.20000000000000017764e+00
  +1.25000000000000000000e+00
  +1.30000000000000004441e+00
  +1.35000000000000008882e+00
  +1.40000000000000013323e+00
  +1.45000000000000017764e+00
  +1.50000000000000000000e+00
  +1.55000000000000004441e+00
  +1.60000000000000008882e+00
  +1.65000000000000013323e+00
  +1.70000000000000017764e+00
  +1.75000000000000000000e+00
  +1.80000000000000004441e+00
  +1.85000000000000008882e+00
  +1.90000000000000013323e+00
  +1.95000000000000017764e+00
  +2.00000000000000000000e+00
  +2.05000000000000026645e+00
  +2.10000000000000008882e+00
  +2.14999999999999991118e+00
  +2.20000000000000017764e+00
  +2.25000000000000000000e+00
  +2.30000000000000026645e+00
  +2.35000000000000008882e+00
  +2.40000000000000035527e+00
  +2.45000000000000017764e+00
  +2.50000000000000000000e+00
  +2.55000000000000026645e+00
  +2.60000000000000008882e+00
  +2.65000000000000035527e+00
  +2.70000000000000017764e+00
  +2.75000000000000000000e+00
  +2.80000000000000026645e+00
  +2.85000000000000008882e+00
  +2.90000000000000035527e+00
  +2.95000000000000017764e+00
  +3.00000000000000000000e+00
  +3.05000000000000026645e+00
  +3.10000000000000008882e+00
  +3.15000000000000035527e+00
  +3.20000000000000017764e+00
  +3.25000000000000000000e+00
  +3.30000000000000026645e+00
  +3.35000000000000008882e+00
  +3.40000000000000035527e+00
  +3.45000000000000017764e+00
  +3.50000000000000000000e+00
  +3.55000000000000026645e+00
  +3.60000000000000008882e+00
  +3.65000000000000035527e+00
  +3.70000000000000017764e+00
  +3.75000000000000000000e+00
  +3.80000000000000026645e+00
  +3.85000000000000008882e+00
  +3.90000000000000035527e+00
  +3.95000000000000017764e+00
  +4.00000000000000000000e+00
  +4.04999999999999982236e+00
  +4.10000000000000053291e+00
  +4.15000000000000035527e+00
  +4.20000000000000017764e+00
  +4.25000000000000000000e+00
  +4.29999999999999982236e+00
  +4.35000000000000053291e+00
  +4.40000000000000035527e+00
  +4.45000000000000017764e+00
  +4.50000000000000000000e+00
  +4.54999999999999982236e+00
  +4.60000000000000053291e+00
  +4.65000000000000035527e+00
  +4.70000000000000017764e+00
  +4.75000000000000000000e+00
  +4.80000000000000071054e+00
  +4.85000000000000053291e+00
  +4.90000000000000035527e+00
  +4.95000000000000017764e+00
  +5.00000000000000000000e+00
</indep>
<dep V2.It time>
  +0.00000000000000000000e+00
  -3.60541899654561598387e-04
  -3.38623512237948374320e-04
  -3.30087421168864987315e-04
  -3.26774416482209992263e-04
  -3.25482735118157303841e-04
  -3.24983928339500529724e-04
  -3.24793277350309418216e-04
  -3.24720407852069250631e-04
  -3.24692556101620387679e-04
  -3.24681910769598089470e-04
  -3.24677841973488754898e-04
  -3.24676286822203228818e-04
  -3.24675692421438021312e-04
  -3.24675465233078208108e-04
  -3.24675378398481457622e-04
  -3.24675345209073258883e-04
  -3.24675332523613100442e-04
  -3.24675327675051281478e-04
  -3.24675325821862455124e-04
  -3.24675325249761061088e-04
  +3.57838774572390559844e-05
  +1.39188673892545512089e-05
  +5.41402673958859035437e-06
  +2.10589588342575774796e-06
  +8.19131061803098871121e-07
  +3.18617696958105261438e-07
  +1.23932837550347739192e-07
  +4.82061993728505317527e-08
  +1.87208359248518258883e-08
  +7.26851714954875846111e-09
  +2.81374552005443595640e-09
  +1.08818201059481618938e-09
  +4.20980875611973288789e-10
  +1.60817593708506063514e-10
  +6.12966697284804854288e-11
  +2.33636235511193855879e-11
  +8.90519677262007396547e-12
  +3.39427355459523817850e-12
  +1.29374939797482100921e-12
  +4.93120980922182107324e-13
  -3.60540606087548707020e-04
  -3.38611768588389548066e-04
  -3.30068944329010155458e-04
  -3.26731706899272434513e-04
  -3.25471998834764709822e-04
  -3.24981558350764614639e-04
  -3.24792358320781049483e-04
  -3.24720051546558276072e-04
  -3.24692417990691769604e-04
  -3.24681857245615913821e-04
  -3.24677821234575672386e-04
  -3.24676278787996356982e-04
  -3.24675689309566746325e-04
  -3.24675464027976055058e-04
  -3.24675377931873856540e-04
  -3.24675345028435961229e-04
  -3.24675332453694582852e-04
  -3.24675327647992468388e-04
  -3.24675325811392206325e-04
  -3.24675325245838200788e-04
  +3.57978354715858513332e-05
  +1.39303503861187505061e-05
  +5.42084903524597322481e-06
  +2.10946626957847164290e-06
  +8.20876566301095397085e-07
  +3.19435464230928303342e-07
  +1.24273866720244961416e-07
  +4.83354011280122161868e-08
  +1.87814669112465357087e-08
  +7.29556227789138282778e-09
  +2.82168044640374280561e-09
  +1.08955076540138589948e-09
  +4.20714142843408151743e-10
  +1.62452632414292284720e-10
  +6.27287155120809836922e-11
  +2.42217789352943661182e-11
  +9.35288679197126331593e-12
  +3.61148087335425306134e-12
  +1.39452068529258168980e-12
  +5.38473831069389896406e-13
  -3.60540502700822714649e-04
  -3.38621772937797963117e-04
  -3.30089108907023797215e-04
  -3.26759774626753346071e-04
  -3.25473039674264909976e-04
  -3.24983233314285197956e-04
  -3.24794212840963164232e-04
  -3.24721229187704008706e-04
  -3.24693049099328257499e-04
  -3.24682168342536815915e-04
  -3.24677967118368294378e-04
  -3.24676344962405028904e-04
  -3.24675718623542038620e-04
  -3.24675476784668079391e-04
  -3.24675383407034437531e-04
  -3.24675347352522901921e-04
  -3.24675333431332637998e-04
  -3.24675328056151272452e-04
  -3.24675325980712818543e-04
  -3.24675325317507921727e-04
  +3.57851639910741081306e-05
  +1.39199542436908992141e-05
  +5.41467760759121183659e-06
  +2.10623778504427907536e-06
  +8.19298567458352107248e-07
  +3.18696277982306129969e-07
  +1.23968625887944935835e-07
  +4.82221515163059138958e-08
  +1.87522888645933073345e-08
  +7.28359002326732098283e-09
  +2.81549574194649132209e-09
  +1.08699145748224365417e-09
  +4.19659817287625917057e-10
  +1.62020005800057847717e-10
  +6.25518126779797244304e-11
  +2.41496675054408941761e-11
  +9.32357378075895479733e-12
  +3.59959523358534049541e-12
  +1.38971237320925141424e-12
  +5.36532680739014699627e-13
  -3.60540275953282103334e-04
  -3.38621309414041855596e-04
  -3.30089390565120816348e-04
  -3.26762084769118021400e-04
  -3.25477056413074367514e-04
  -3.24983349436401406686e-04
  -3.24793667568550709860e-04
  -3.24720791930385981744e-04
  -3.24692793162248243000e-04
  -3.24682036055525392697e-04
  -3.24677903182804690994e-04
  -3.24676315336057050298e-04
  -3.24675705286470574033e-04
  -3.24675470905855072246e-04
  -3.24675380856990060483e-04
  -3.24675346260280394545e-04
  -3.24675332968249181868e-04
  -3.24675327861460329398e-04
  -3.24675325899435656893e-04
  -3.24675325286228743261e-04
  +3.57976994593269277748e-05
  +1.39302417701259653992e-05
  +5.42078509806593875130e-06
  +2.10943295632029511892e-06
  +8.20860321284058963572e-07
  +3.19427865692384510593e-07
  +1.24274324658648957515e-07
  +4.83353076702298321395e-08
  +1.87995547269560641200e-08
  +7.29934768226251519752e-09
  +2.81359216938075351584e-09
  +1.08436906827337032372e-09
  +4.17919941996011304444e-10
  +1.61067926989154128747e-10
  +6.20761885175393573777e-11
  +2.39243979412766507496e-11
  +9.22055349275883782083e-12
  +3.55363620524573470303e-12
  +1.36958483990692056604e-12
  +5.27843179595575786448e-13
  -3.60540716599874505773e-04
  -3.38621760965149829793e-04
  -3.30096494685817637340e-04
  -3.26774448496551907575e-04
  -3.25477916904362346226e-04
  -3.24981386070164997640e-04
  -3.24792038461008754531e-04
  -3.24719832437487219978e-04
  -3.24692297313827543323e-04
  -3.24681797039778744819e-04
  -3.24677792853835585785e-04
  -3.24676265893206466174e-04
  -3.24675683600376952225e-04
  -3.24675461548195026101e-04
  -3.24675376870574153906e-04
  -3.24675344579517931743e-04
  -3.24675332265611418358e-04
  -3.24675327569812872345e-04
  -3.24675325779111983993e-04
  -3.24675323489792967517e-04
  +3.57948195458976812437e-05
  +1.39216418872357595998e-05
  +5.41600451982938023741e-06
  +2.10757571999140723670e-06
  +8.19997725692474094307e-07
  +3.18912391767278580924e-07
  +1.24071286428013005832e-07
  +4.82188733972027324520e-08
  +1.87542085412662332113e-08
  +7.28194367525236465201e-09
  +2.80680867579270676495e-09
  +1.08187797666253456207e-09
  +4.17007388669573296503e-10
  +1.60734543041039133820e-10
  +6.19547615428061206118e-11
  +2.38803209640253759000e-11
  +9.20461503109550561365e-12
  +3.54789778572517675438e-12
  +1.36752907703685531740e-12
  +5.27110951185146764486e-13
</dep>
<dep _net0.Vt time>
  +0.00000000000000000000e+00
  +5.00000000000000000000e+00
  +5.00000000000000000000e+00
  +5.00000000000000000000e+00
  +5.00000000000000000000e+00
  +5.00000000000000000000e+00
  +5.00000000000000000000e+00
  +5.00000000000000000000e+00
  +5.00000000000000000000e+00
  +5.00000000000000000000e+00
  +5.00000000000000000000e+00
  +5.00000000000000000000e+00
  +5.00000000000000000000e+00
  +5.00000000000000000000e+00
  +5.00000000000000000000e+00
  +5.00000000000000000000e+00
  +5.00000000000000000000e+00
  +5.00000000000000000000e+00
  +5.00000000000000000000e+00
  +5.00000000000000000000e+00
  +5.00000000170502900687e+00
  +0.00000000000000000000e+00
  +0.00000000000000000000e+00
  +0.00000000000000000000e+00
  +0.00000000000000000000e+00
  +0.00000000000000000000e+00
  +0.00000000000000000000e+00
  +0.00000000000000000000e+00
  +0.00000000000000000000e+00
  +0.00000000000000000000e+00
  +0.00000000000000000000e+00
  +0.00000000000000000000e+00
  +0.00000000000000000000e+00
  +0.00000000000000000000e+00
  +0.00000000000000000000e+00
  +0.00000000000000000000e+00
  +0.00000000000000000000e+00
  +0.00000000000000000000e+00
  +0.00000000000000000000e+00
  +0.00000000000000000000e+00
  +0.00000000000000000000e+00
  +5.00000000000000000000e+00
  +5.00000000000000000000e+00
  +5.00000000000000000000e+00
  +5.00000000000000000000e+00
  +5.00000000000000000000e+00
  +5.00000000000000000000e+00
  +5.00000000000000000000e+00
  +5.00000000000000000000e+00
  +5.00000000000000000000e+00
  +5.00000000000000000000e+00
  +5.00000000000000000000e+00
  +5.00000000000000000000e+00
  +5.00000000000000000000e+00
  +5.00000000000000000000e+00
  +5.00000000000000000000e+00
  +5.00000000000000000000e+00
  +5.00000000000000000000e+00
  +5.00000000000000000000e+00
  +5.00000000000000000000e+00
  +5.00000000170502900687e+00
  +0.00000000000000000000e+00
  +0.00000000000000000000e+00
  +0.00000000000000000000e+00
  +0.00000000000000000000e+00
  +0.00000000000000000000e+00
  +0.00000000000000000000e+00
  +0.00000000000000000000e+00
  +0.00000000000000000000e+00
  +0.00000000000000000000e+00
  +0.00000000000000000000e+00
  +0.00000000000000000000e+00
  +0.00000000000000000000e+00
  +0.00000000000000000000e+00
  +0.00000000000000000000e+00
  +0.00000000000000000000e+00
  +0.00000000000000000000e+00
  +0.00000000000000000000e+00
  +0.00000000000000000000e+00
  +0.00000000000000000000e+00
  +0.00000000000000000000e+00
  +5.00000000000000000000e+00
  +5.00000000000000000000e+00
  +5.00000000000000000000e+00
  +5.00000000000000000000e+00
  +5.00000000000000000000e+00
  +5.00000000000000000000e+00
  +5.00000000000000000000e+00
  +5.00000000000000000000e+00
  +5.00000000000000000000e+00
  +5.00000000000000000000e+00
  +5.00000000000000000000e+00
  +5.00000000000000000000e+00
  +5.00000000000000000000e+00
  +5.00000000000000000000e+00
  +5.00000000000000000000e+00
  +5.00000000000000000000e+00
  +5.00000000000000000000e+00
  +5.00000000000000000000e+00
  +5.00000000000000000000e+00
  +5.00000000170502900687e+00
  +0.00000000000000000000e+00
  +0.00000000000000000000e+00
  +0.00000000000000000000e+00
  +0.00000000000000000000e+00
  +0.00000000000000000000e+00
  +0.00000000000000000000e+00
  +0.00000000000000000000e+00
  +0.00000000000000000000e+00
  +0.00000000000000000000e+00
  +0.00000000000000000000e+00
  +0.00000000000000000000e+00
  +0.00000000000000000000e+00
  +0.00000000000000000000e+00
  +0.00000000000000000000e+00
  +0.00000000000000000000e+00
  +0.00000000000000000000e+00
  +0.00000000000000000000e+00
  +0.00000000000000000000e+00
  +0.00000000000000000000e+00
  +0.00000000000000000000e+00
  +5.00000000000000000000e+00
  +5.00000000000000000000e+00
  +5.00000000000000000000e+00
  +5.00000000000000000000e+00
  +5.00000000000000000000e+00
  +5.00000000000000000000e+00
  +5.00000000000000000000e+00
  +5.00000000000000000000e+00
  +5.00000000000000000000e+00
  +5.00000000000000000000e+00
  +5.00000000000000000000e+00
  +5.00000000000000000000e+00
  +5.00000000000000000000e+00
  +5.00000000000000000000e+00
  +5.00000000000000000000e+00
  +5.00000000000000000000e+00
  +5.00000000000000000000e+00
  +5.00000000000000000000e+00
  +5.00000000000000000000e+00
  +5.00000000170502900687e+00
  +0.00000000000000000000e+00
  +0.00000000000000000000e+00
  +0.00000000000000000000e+00
  +0.00000000000000000000e+00
  +0.00000000000000000000e+00
  +0.00000000000000000000e+00
  +0.00000000000000000000e+00
  +0.00000000000000000000e+00
  +0.00000000000000000000e+00
  +0.00000000000000000000e+00
  +0.00000000000000000000e+00
  +0.00000000000000000000e+00
  +0.00000000000000000000e+00
  +0.00000000000000000000e+00
  +0.00000000000000000000e+00
  +0.00000000000000000000e+00
  +0.00000000000000000000e+00
  +0.00000000000000000000e+00
