<Qucs Dataset 0.0.20>
<indep time 201>
  +0.00000000000000000000e+00
  +2.50000000000000011980e-05
  +5.00000000000000023961e-05
  +7.50000000000000069823e-05
  +1.00000000000000004792e-04
  +1.25000000000000002602e-04
  +1.50000000000000013965e-04
  +1.74999999999999998222e-04
  +2.00000000000000009584e-04
  +2.25000000000000020947e-04
  +2.50000000000000005204e-04
  +2.75000000000000016567e-04
  +3.00000000000000027929e-04
  +3.25000000000000039291e-04
  +3.49999999999999996444e-04
  +3.75000000000000007806e-04
  +4.00000000000000019169e-04
  +4.25000000000000030531e-04
  +4.50000000000000041894e-04
  +4.74999999999999999046e-04
  +5.00000000000000010408e-04
  +5.25000000000000075981e-04
  +5.50000000000000033133e-04
  +5.74999999999999990286e-04
  +6.00000000000000055858e-04
  +6.25000000000000013010e-04
  +6.50000000000000078583e-04
  +6.75000000000000035735e-04
  +6.99999999999999992888e-04
  +7.25000000000000058460e-04
  +7.50000000000000015613e-04
  +7.75000000000000081185e-04
  +8.00000000000000038337e-04
  +8.24999999999999995490e-04
  +8.50000000000000061062e-04
  +8.75000000000000018215e-04
  +9.00000000000000083787e-04
  +9.25000000000000040939e-04
  +9.49999999999999998092e-04
  +9.75000000000000063664e-04
  +1.00000000000000002082e-03
  +1.02500000000000008639e-03
  +1.05000000000000015196e-03
  +1.07500000000000000069e-03
  +1.10000000000000006627e-03
  +1.12500000000000013184e-03
  +1.14999999999999998057e-03
  +1.17500000000000004614e-03
  +1.20000000000000011172e-03
  +1.22499999999999996045e-03
  +1.25000000000000002602e-03
  +1.27500000000000009159e-03
  +1.30000000000000015717e-03
  +1.32500000000000000590e-03
  +1.35000000000000007147e-03
  +1.37500000000000013704e-03
  +1.39999999999999998578e-03
  +1.42500000000000005135e-03
  +1.45000000000000011692e-03
  +1.47499999999999996565e-03
  +1.50000000000000003123e-03
  +1.52500000000000009680e-03
  +1.55000000000000016237e-03
  +1.57500000000000001110e-03
  +1.60000000000000007667e-03
  +1.62500000000000014225e-03
  +1.64999999999999999098e-03
  +1.67500000000000005655e-03
  +1.70000000000000012212e-03
  +1.72500000000000018770e-03
  +1.75000000000000003643e-03
  +1.77500000000000010200e-03
  +1.80000000000000016757e-03
  +1.82500000000000001631e-03
  +1.85000000000000008188e-03
  +1.87500000000000014745e-03
  +1.89999999999999999618e-03
  +1.92500000000000006176e-03
  +1.95000000000000012733e-03
  +1.97500000000000019290e-03
  +2.00000000000000004163e-03
  +2.02499999999999989037e-03
  +2.05000000000000017278e-03
  +2.07500000000000002151e-03
  +2.10000000000000030392e-03
  +2.12500000000000015266e-03
  +2.15000000000000000139e-03
  +2.17500000000000028380e-03
  +2.20000000000000013253e-03
  +2.22499999999999998126e-03
  +2.25000000000000026368e-03
  +2.27500000000000011241e-03
  +2.29999999999999996114e-03
  +2.32500000000000024356e-03
  +2.35000000000000009229e-03
  +2.37499999999999994102e-03
  +2.40000000000000022343e-03
  +2.42500000000000007216e-03
  +2.44999999999999992090e-03
  +2.47500000000000020331e-03
  +2.50000000000000005204e-03
  +2.52500000000000033445e-03
  +2.55000000000000018319e-03
  +2.57500000000000003192e-03
  +2.60000000000000031433e-03
  +2.62500000000000016306e-03
  +2.65000000000000001180e-03
  +2.67500000000000029421e-03
  +2.70000000000000014294e-03
  +2.72499999999999999167e-03
  +2.75000000000000027409e-03
  +2.77500000000000012282e-03
  +2.79999999999999997155e-03
  +2.82500000000000025396e-03
  +2.85000000000000010270e-03
  +2.87499999999999995143e-03
  +2.90000000000000023384e-03
  +2.92500000000000008257e-03
  +2.94999999999999993130e-03
  +2.97500000000000021372e-03
  +3.00000000000000006245e-03
  +3.02500000000000034486e-03
  +3.05000000000000019360e-03
  +3.07500000000000004233e-03
  +3.10000000000000032474e-03
  +3.12500000000000017347e-03
  +3.15000000000000002220e-03
  +3.17500000000000030462e-03
  +3.20000000000000015335e-03
  +3.22500000000000000208e-03
  +3.25000000000000028449e-03
  +3.27500000000000013323e-03
  +3.29999999999999998196e-03
  +3.32500000000000026437e-03
  +3.35000000000000011310e-03
  +3.37499999999999996184e-03
  +3.40000000000000024425e-03
  +3.42500000000000009298e-03
  +3.45000000000000037539e-03
  +3.47500000000000022413e-03
  +3.50000000000000007286e-03
  +3.52500000000000035527e-03
  +3.55000000000000020400e-03
  +3.57500000000000005274e-03
  +3.60000000000000033515e-03
  +3.62500000000000018388e-03
  +3.65000000000000003261e-03
  +3.67500000000000031503e-03
  +3.70000000000000016376e-03
  +3.72500000000000001249e-03
  +3.75000000000000029490e-03
  +3.77500000000000014364e-03
  +3.79999999999999999237e-03
  +3.82500000000000027478e-03
  +3.85000000000000012351e-03
  +3.87499999999999997224e-03
  +3.90000000000000025466e-03
  +3.92500000000000053707e-03
  +3.95000000000000038580e-03
  +3.97500000000000023453e-03
  +4.00000000000000008327e-03
  +4.02499999999999993200e-03
  +4.04999999999999978073e-03
  +4.07500000000000049682e-03
  +4.10000000000000034556e-03
  +4.12500000000000019429e-03
  +4.15000000000000004302e-03
  +4.17499999999999989175e-03
  +4.20000000000000060785e-03
  +4.22500000000000045658e-03
  +4.25000000000000030531e-03
  +4.27500000000000015404e-03
  +4.30000000000000000278e-03
  +4.32499999999999985151e-03
  +4.35000000000000056760e-03
  +4.37500000000000041633e-03
  +4.40000000000000026507e-03
  +4.42500000000000011380e-03
  +4.44999999999999996253e-03
  +4.47499999999999981126e-03
  +4.50000000000000052736e-03
  +4.52500000000000037609e-03
  +4.55000000000000022482e-03
  +4.57500000000000007355e-03
  +4.59999999999999992228e-03
  +4.62500000000000063838e-03
  +4.65000000000000048711e-03
  +4.67500000000000033584e-03
  +4.70000000000000018457e-03
  +4.72500000000000003331e-03
  +4.74999999999999988204e-03
  +4.77500000000000059813e-03
  +4.80000000000000044686e-03
  +4.82500000000000029560e-03
  +4.85000000000000014433e-03
  +4.87499999999999999306e-03
  +4.89999999999999984179e-03
  +4.92500000000000055789e-03
  +4.95000000000000040662e-03
  +4.97500000000000025535e-03
  +5.00000000000000010408e-03
</indep>
<indep Vs 101>
  +0.00000000000000000000e+00
  +5.00000000000000027756e-02
  +1.00000000000000005551e-01
  +1.50000000000000022204e-01
  +2.00000000000000011102e-01
  +2.50000000000000000000e-01
  +3.00000000000000044409e-01
  +3.50000000000000033307e-01
  +4.00000000000000022204e-01
  +4.50000000000000011102e-01
  +5.00000000000000000000e-01
  +5.50000000000000044409e-01
  +6.00000000000000088818e-01
  +6.50000000000000022204e-01
  +7.00000000000000066613e-01
  +7.50000000000000000000e-01
  +8.00000000000000044409e-01
  +8.50000000000000088818e-01
  +9.00000000000000022204e-01
  +9.50000000000000066613e-01
  +1.00000000000000000000e+00
  +1.05000000000000004441e+00
  +1.10000000000000008882e+00
  +1.15000000000000013323e+00
  +1.20000000000000017764e+00
  +1.25000000000000000000e+00
  +1.30000000000000004441e+00
  +1.35000000000000008882e+00
  +1.40000000000000013323e+00
  +1.45000000000000017764e+00
  +1.50000000000000000000e+00
  +1.55000000000000004441e+00
  +1.60000000000000008882e+00
  +1.65000000000000013323e+00
  +1.70000000000000017764e+00
  +1.75000000000000000000e+00
  +1.80000000000000004441e+00
  +1.85000000000000008882e+00
  +1.90000000000000013323e+00
  +1.95000000000000017764e+00
  +2.00000000000000000000e+00
  +2.05000000000000026645e+00
  +2.10000000000000008882e+00
  +2.14999999999999991118e+00
  +2.20000000000000017764e+00
  +2.25000000000000000000e+00
  +2.30000000000000026645e+00
  +2.35000000000000008882e+00
  +2.40000000000000035527e+00
  +2.45000000000000017764e+00
  +2.50000000000000000000e+00
  +2.55000000000000026645e+00
  +2.60000000000000008882e+00
  +2.65000000000000035527e+00
  +2.70000000000000017764e+00
  +2.75000000000000000000e+00
  +2.80000000000000026645e+00
  +2.85000000000000008882e+00
  +2.90000000000000035527e+00
  +2.95000000000000017764e+00
  +3.00000000000000000000e+00
  +3.05000000000000026645e+00
  +3.10000000000000008882e+00
  +3.15000000000000035527e+00
  +3.20000000000000017764e+00
  +3.25000000000000000000e+00
  +3.30000000000000026645e+00
  +3.35000000000000008882e+00
  +3.40000000000000035527e+00
  +3.45000000000000017764e+00
  +3.50000000000000000000e+00
  +3.55000000000000026645e+00
  +3.60000000000000008882e+00
  +3.65000000000000035527e+00
  +3.70000000000000017764e+00
  +3.75000000000000000000e+00
  +3.80000000000000026645e+00
  +3.85000000000000008882e+00
  +3.90000000000000035527e+00
  +3.95000000000000017764e+00
  +4.00000000000000000000e+00
  +4.04999999999999982236e+00
  +4.10000000000000053291e+00
  +4.15000000000000035527e+00
  +4.20000000000000017764e+00
  +4.25000000000000000000e+00
  +4.29999999999999982236e+00
  +4.35000000000000053291e+00
  +4.40000000000000035527e+00
  +4.45000000000000017764e+00
  +4.50000000000000000000e+00
  +4.54999999999999982236e+00
  +4.60000000000000053291e+00
  +4.65000000000000035527e+00
  +4.70000000000000017764e+00
  +4.75000000000000000000e+00
  +4.80000000000000071054e+00
  +4.85000000000000053291e+00
  +4.90000000000000035527e+00
  +4.95000000000000017764e+00
  +5.00000000000000000000e+00
</indep>
<dep V2.It time>
  +0.00000000000000000000e+00
  -3.98215847962993382478e-04
  -3.59176367531608450694e-04
  -3.45158436449136195139e-04
  -3.40079162455878252630e-04
  -3.38247086182279698904e-04
  -3.37586556207015141013e-04
  -3.37346711260834441776e-04
  -3.37259040947365579168e-04
  -3.37226798236829703338e-04
  -3.37214874051979299728e-04
  -3.37210442025960544475e-04
  -3.37208787341299661561e-04
  -3.37208167128310839014e-04
  -3.37207933853915812691e-04
  -3.37207845850609781377e-04
  -3.37207812564718810780e-04
  -3.37207799946646858899e-04
  -3.37207795154192177100e-04
  -3.37207793330997370167e-04
  -3.37207792807112073045e-04
  +6.08760072467849842046e-05
  +2.19326727088256925662e-05
  +7.95924176078864425120e-06
  +2.90838666489364123377e-06
  +1.06979488896669540506e-06
  +3.95962813405120181971e-07
  +1.47410709328774937333e-07
  +5.51728241822219172959e-08
  +2.07324090640129678025e-08
  +7.82296224592053250790e-09
  +2.95163931085177887688e-09
  +1.10402884476383506066e-09
  +4.12931667111628284062e-10
  +1.54917827827731501063e-10
  +5.82727996867677533825e-11
  +2.19688789134893271648e-11
  +8.29819044250012187412e-12
  +3.13954593803680342643e-12
  +1.18945939740718047830e-12
  +4.51168099300088423989e-13
  -3.98213540777003598137e-04
  -3.59174017748771989226e-04
  -3.45158093990029007578e-04
  -3.40079129020429723855e-04
  -3.38247208533993962490e-04
  -3.37586647773253022923e-04
  -3.37346761419133505441e-04
  -3.37259065358979368606e-04
  -3.37226809417165494624e-04
  -3.37214878991258753919e-04
  -3.37210444157848580806e-04
  -3.37208788246898716508e-04
  -3.37208167508616218216e-04
  -3.37207934012264244714e-04
  -3.37207845916106922508e-04
  -3.37207812591667631559e-04
  -3.37207799957686910151e-04
  -3.37207795158698446589e-04
  -3.37207793332830864461e-04
  -3.37207792807790566764e-04
  +6.08676190842652415714e-05
  +2.19324597354405052222e-05
  +7.95945883957453997459e-06
  +2.90856914644512394349e-06
  +1.06989845578212663775e-06
  +3.96014135557588264802e-07
  +1.47434488279970692019e-07
  +5.51311507266112994881e-08
  +2.07175711634154058330e-08
  +7.79446991630457798012e-09
  +2.94294195501248370226e-09
  +1.10538525232220925429e-09
  +4.14084333471456624469e-10
  +1.55587989552416802290e-10
  +5.86130369668303227066e-11
  +2.21300282075571953179e-11
  +8.37138439044891739007e-12
  +3.17187642235731381384e-12
  +1.20345978836813906038e-12
  +4.57141785775364097831e-13
  -3.98214284143074879162e-04
  -3.59180078306922646002e-04
  -3.45154054590037428704e-04
  -3.40088298343742994386e-04
  -3.38252921918038369949e-04
  -3.37589569441468651933e-04
  -3.37348130293225654218e-04
  -3.37259676740765657575e-04
  -3.37227074619850177191e-04
  -3.37214991854360918774e-04
  -3.37210491563606773457e-04
  -3.37208807972871362196e-04
  -3.37208175659937741363e-04
  -3.37207937362715291958e-04
  -3.37207847287441446309e-04
  -3.37207813151013874927e-04
  -3.37207800185170632114e-04
  -3.37207795250981181862e-04
  -3.37207793370182876136e-04
  -3.37207792821609373974e-04
  +6.08739199746315069782e-05
  +2.19371308144207752288e-05
  +7.96198868299470507938e-06
  +2.90978610159388735977e-06
  +1.07044950664500136312e-06
  +3.96255006012174476258e-07
  +1.47537465525319959542e-07
  +5.51808445457025705704e-08
  +2.07375174749790439780e-08
  +7.81516166232409139844e-09
  +2.93152951532374041667e-09
  +1.09734660097404228264e-09
  +4.14419983474861537451e-10
  +1.57040895764966408035e-10
  +5.96560260386157094719e-11
  +2.27100057264625434115e-11
  +8.66105026383150944744e-12
  +3.30825845720683147889e-12
  +1.26533029843569886473e-12
  +4.84504166766395030300e-13
  -3.98214021638000235589e-04
  -3.59165253331350899698e-04
  -3.45131226029662149628e-04
  -3.40088684107944772515e-04
  -3.38260628369357744302e-04
  -3.37589377515817444693e-04
  -3.37346629703502156553e-04
  -3.37258617969744768552e-04
  -3.37226501702801793447e-04
  -3.37214713418614183381e-04
  -3.37210363751720752865e-04
  -3.37208751304366404194e-04
  -3.37208151105051134270e-04
  -3.37207926893155773580e-04
  -3.37207842876167474336e-04
  -3.37207811309147859752e-04
  -3.37207799421620764251e-04
  -3.37207794936290254466e-04
  -3.37207793241114624824e-04
  -3.37207792762769396813e-04
  +6.08785828529485856632e-05
  +2.19415991802355167767e-05
  +7.96460296527769848597e-06
  +2.91131313037808920959e-06
  +1.07121429988568041240e-06
  +3.96518018758316003320e-07
  +1.47566752462499061508e-07
  +5.51794905621500563345e-08
  +2.07334202154308485690e-08
  +7.81622884382301683343e-09
  +2.95098291025814530089e-09
  +1.10842906690760209282e-09
  +4.15217533460938621566e-10
  +1.56011720900322607791e-10
  +5.87720889191276033264e-11
  +2.21899296509104765907e-11
  +8.39400945919765769288e-12
  +3.18044327282209281907e-12
  +1.20671047568252971154e-12
  +4.58377491205773663123e-13
  -3.98214303070162803453e-04
  -3.59176776859775732063e-04
  -3.45151332563647765539e-04
  -3.40075301932673266288e-04
  -3.38243929061304783763e-04
  -3.37584791656585486014e-04
  -3.37345847684960870472e-04
  -3.37258481574190575013e-04
  -3.37226504734574814015e-04
  -3.37214733634351470672e-04
  -3.37210378174727920791e-04
  -3.37208759207589727370e-04
  -3.37208154991422773272e-04
  -3.37207928695932180468e-04
  -3.37207843682764722096e-04
  -3.37207811661351043904e-04
  -3.37207799572749981898e-04
  -3.37207795000295479197e-04
  -3.37207793267946677029e-04
  -3.37207790728185523906e-04
  +6.08721901350138354641e-05
  +2.19358598835416722416e-05
  +7.96130226919131762269e-06
  +2.90945635337675963283e-06
  +1.07030030990165884764e-06
  +3.96189823513170724785e-07
  +1.47509608401559774386e-07
  +5.52087296121606946025e-08
  +2.07561507356646571904e-08
  +7.82140698494743710970e-09
  +2.95835662086964635473e-09
  +1.11483756894995953847e-09
  +4.20992602730452852977e-10
  +1.59436020480528214539e-10
  +6.05312927833322006523e-11
  +2.30305972051653867207e-11
  +8.77868994449038015999e-12
  +3.35148516438110637964e-12
  +1.28122922593856397700e-12
  +4.90355239700340031490e-13
</dep>
<dep Vin.Vt time>
  +0.00000000000000000000e+00
  +4.50000000000000000000e+00
  +4.50000000000000000000e+00
  +4.50000000000000000000e+00
  +4.50000000000000000000e+00
  +4.50000000000000000000e+00
  +4.50000000000000000000e+00
  +4.50000000000000000000e+00
  +4.50000000000000000000e+00
  +4.50000000000000000000e+00
  +4.50000000000000000000e+00
  +4.50000000000000000000e+00
  +4.50000000000000000000e+00
  +4.50000000000000000000e+00
  +4.50000000000000000000e+00
  +4.50000000000000000000e+00
  +4.50000000000000000000e+00
  +4.50000000000000000000e+00
  +4.50000000000000000000e+00
  +4.50000000000000000000e+00
  +4.50000000153452539564e+00
  +0.00000000000000000000e+00
  +0.00000000000000000000e+00
  +0.00000000000000000000e+00
  +0.00000000000000000000e+00
  +0.00000000000000000000e+00
  +0.00000000000000000000e+00
  +0.00000000000000000000e+00
  +0.00000000000000000000e+00
  +0.00000000000000000000e+00
  +0.00000000000000000000e+00
  +0.00000000000000000000e+00
  +0.00000000000000000000e+00
  +0.00000000000000000000e+00
  +0.00000000000000000000e+00
  +0.00000000000000000000e+00
  +0.00000000000000000000e+00
  +0.00000000000000000000e+00
  +0.00000000000000000000e+00
  +0.00000000000000000000e+00
  +0.00000000000000000000e+00
  +4.50000000000000000000e+00
  +4.50000000000000000000e+00
  +4.50000000000000000000e+00
  +4.50000000000000000000e+00
  +4.50000000000000000000e+00
  +4.50000000000000000000e+00
  +4.50000000000000000000e+00
  +4.50000000000000000000e+00
  +4.50000000000000000000e+00
  +4.50000000000000000000e+00
  +4.50000000000000000000e+00
  +4.50000000000000000000e+00
  +4.50000000000000000000e+00
  +4.50000000000000000000e+00
  +4.50000000000000000000e+00
  +4.50000000000000000000e+00
  +4.50000000000000000000e+00
  +4.50000000000000000000e+00
  +4.50000000000000000000e+00
  +4.50000000153452539564e+00
  +0.00000000000000000000e+00
  +0.00000000000000000000e+00
  +0.00000000000000000000e+00
  +0.00000000000000000000e+00
  +0.00000000000000000000e+00
  +0.00000000000000000000e+00
  +0.00000000000000000000e+00
  +0.00000000000000000000e+00
  +0.00000000000000000000e+00
  +0.00000000000000000000e+00
  +0.00000000000000000000e+00
  +0.00000000000000000000e+00
  +0.00000000000000000000e+00
  +0.00000000000000000000e+00
  +0.00000000000000000000e+00
  +0.00000000000000000000e+00
  +0.00000000000000000000e+00
  +0.00000000000000000000e+00
  +0.00000000000000000000e+00
  +0.00000000000000000000e+00
  +4.50000000000000000000e+00
  +4.50000000000000000000e+00
  +4.50000000000000000000e+00
  +4.50000000000000000000e+00
  +4.50000000000000000000e+00
  +4.50000000000000000000e+00
  +4.50000000000000000000e+00
  +4.50000000000000000000e+00
  +4.50000000000000000000e+00
  +4.50000000000000000000e+00
  +4.50000000000000000000e+00
  +4.50000000000000000000e+00
  +4.50000000000000000000e+00
  +4.50000000000000000000e+00
  +4.50000000000000000000e+00
  +4.50000000000000000000e+00
  +4.50000000000000000000e+00
  +4.50000000000000000000e+00
  +4.50000000000000000000e+00
  +4.50000000153452539564e+00
  +0.00000000000000000000e+00
  +0.00000000000000000000e+00
  +0.00000000000000000000e+00
  +0.00000000000000000000e+00
  +0.00000000000000000000e+00
  +0.00000000000000000000e+00
  +0.00000000000000000000e+00
  +0.00000000000000000000e+00
  +0.00000000000000000000e+00
  +0.00000000000000000000e+00
  +0.00000000000000000000e+00
  +0.00000000000000000000e+00
  +0.00000000000000000000e+00
  +0.00000000000000000000e+00
  +0.00000000000000000000e+00
  +0.00000000000000000000e+00
  +0.00000000000000000000e+00
  +0.00000000000000000000e+00
  +0.00000000000000000000e+00
  +0.00000000000000000000e+00
  +4.50000000000000000000e+00
  +4.50000000000000000000e+00
  +4.50000000000000000000e+00
  +4.50000000000000000000e+00
  +4.50000000000000000000e+00
  +4.50000000000000000000e+00
  +4.50000000000000000000e+00
  +4.50000000000000000000e+00
  +4.50000000000000000000e+00
  +4.50000000000000000000e+00
  +4.50000000000000000000e+00
  +4.50000000000000000000e+00
  +4.50000000000000000000e+00
  +4.50000000000000000000e+00
  +4.50000000000000000000e+00
  +4.50000000000000000000e+00
  +4.50000000000000000000e+00
  +4.50000000000000000000e+00
  +4.50000000000000000000e+00
  +4.50000000153452539564e+00
  +0.00000000000000000000e+00
  +0.00000000000000000000e+00
  +0.00000000000000000000e+00
  +0.00000000000000000000e+00
  +0.00000000000000000000e+00
  +0.00000000000000000000e+00
  +0.00000000000000000000e+00
  +0.00000000000000000000e+00
  +0.00000000000000000000e+00
  +0.00000000000000000000e+00
  +0.00000000000000000000e+00
  +0.00000000000000000000e+00
  +0.00000000000000000000e+00
  +0.00000000000000000000e+00
  +0.00000000000000000000e+00
  +0.00000000000000000000e+00
  +0.00000000000000000000e+00
  +0.00000000000000000000e+00
